(1768394472.318186) can0 18FF1180#FC0000FFFFFFFFFF
(1768394472.318847) can0 18FEF100#FF2A1CFFFFFFFFFF
(1768394472.319017) can0 18FEF500#FFFFFF8E1FFFFFFF
(1768394472.319062) can0 18FF102C#FC0000FCFFFFFFFF
(1768394472.319184) can0 18FF14E6#D31FC3FFFFFFFFFF
(1768394472.319367) can0 18FF1381#96002E20FFFFFFFF
(1768394472.319470) can0 18FF1280#EF01FA01FFFFFFFF
(1768394472.320702) can0 18FF2021#00000000FCFFFFFF
(1768394472.322760) can0 18FEBF0B#291C7D7D7D7DFFFF
(1768394472.323860) can0 18FEE617#30290C0138267D7E
(1768394472.325060) can0 18FCB7F3#C3FF2C01FFFFFFFF
(1768394472.329102) can0 18FF1280#F201FD01FFFFFFFF
(1768394472.330902) can0 18FF2021#00000000FCFFFFFF
(1768394472.331309) can0 18FF2221#F2FF2600FFFFFFFF
(1768394472.338060) can0 18FF1280#F401F501FFFFFFFF
(1768394472.338103) can0 18FF102C#FC0000FCFFFFFFFF
(1768394472.338922) can0 18FF1180#FC0000FFFFFFFFFF
(1768394472.339567) can0 18FF1381#96002E20FFFFFFFF
(1768394472.341358) can0 18FF2021#00000000FCFFFFFF
(1768394472.349172) can0 18FF1280#FC01F401FFFFFFFF
(1768394472.350104) can0 18FF2221#0C000B00FFFFFFFF
(1768394472.350417) can0 18FF2021#00000000FCFFFFFF
(1768394472.358566) can0 18FF1180#FC0000FFFFFFFFFF
(1768394472.358650) can0 18FF102C#FC0000FCFFFFFFFF
(1768394472.358817) can0 18FF1280#FA01F601FFFFFFFF
(1768394472.359276) can0 18FF1381#96002E20FFFFFFFF
(1768394472.360400) can0 18FF2121#00E40000FFFFFFFF
(1768394472.360548) can0 18FF2021#00000000FCFFFFFF
(1768394472.368967) can0 18FF1280#EE01F501FFFFFFFF
(1768394472.370130) can0 18FF2221#FDFF0800FFFFFFFF
(1768394472.370338) can0 18FF2021#00000000FCFFFFFF
(1768394472.378496) can0 18FF1280#EE01F701FFFFFFFF
(1768394472.378913) can0 18FF1180#FC0000FFFFFFFFFF
(1768394472.379012) can0 18FF1381#96002E20FFFFFFFF
(1768394472.379487) can0 18FF102C#FC0000FCFFFFFFFF
(1768394472.380994) can0 18FF2021#00000000FCFFFFFF
(1768394472.388242) can0 18FF1280#F601F601FFFFFFFF
(1768394472.390610) can0 18FF2221#FDFF0B00FFFFFFFF
(1768394472.391014) can0 18FF2021#00000000FCFFFFFF
(1768394472.398674) can0 18FF1180#FC0000FFFFFFFFFF
(1768394472.398763) can0 18FF1381#96002E20FFFFFFFF
(1768394472.398886) can0 18FF1280#F301F401FFFFFFFF
(1768394472.399501) can0 18FF102C#FC0000FCFFFFFFFF
(1768394472.401234) can0 18FF2021#00000000FCFFFFFF
(1768394472.409407) can0 18FF1280#F301F501FFFFFFFF
(1768394472.410113) can0 18FF2221#FCFF0500FFFFFFFF
(1768394472.410665) can0 18FF2121#00E40000FFFFFFFF
(1768394472.410860) can0 18FF2021#00000000FCFFFFFF
(1768394472.418813) can0 18FF1381#96002E20FFFFFFFF
(1768394472.418839) can0 18FF1280#F301F701FFFFFFFF
(1768394472.418846) can0 18FF1180#FC0000FFFFFFFFFF
(1768394472.418963) can0 18FEF100#FF2A1CFFFFFFFFFF
(1768394472.419243) can0 18FF14E6#D31FC3FFFFFFFFFF
(1768394472.419309) can0 18FF102C#FC0000FCFFFFFFFF
(1768394472.420113) can0 18FF2021#00000000FCFFFFFF
(1768394472.422892) can0 18FEBF0B#291C7D7D7D7DFFFF
(1768394472.428399) can0 18FF1280#EE01F601FFFFFFFF
(1768394472.431125) can0 18FF2021#00000000FCFFFFFF
(1768394472.431212) can0 18FF2221#F2FF0A00FFFFFFFF
(1768394472.438207) can0 18FF102C#FC0000FCFFFFFFFF
(1768394472.438368) can0 18FF1381#96002E20FFFFFFFF
(1768394472.439200) can0 18FF1180#FC0000FFFFFFFFFF
(1768394472.439383) can0 18FF1280#F401F501FFFFFFFF
(1768394472.440670) can0 18FF2021#00000000FCFFFFFF
(1768394472.448062) can0 18FF1280#F201F401FFFFFFFF
(1768394472.450278) can0 18FF2221#F9FF0400FFFFFFFF
(1768394472.450342) can0 18FF2021#00000000FCFFFFFF
(1768394472.458460) can0 18FF1180#FC0000FFFFFFFFFF
(1768394472.458549) can0 18FF1381#96002E20FFFFFFFF
(1768394472.458739) can0 18FF1280#F201F801FFFFFFFF
(1768394472.458972) can0 18FF102C#FC0000FCFFFFFFFF
(1768394472.460485) can0 18FF2121#00E40000FFFFFFFF
(1768394472.461287) can0 18FF2021#00000000FCFFFFFF
(1768394472.469013) can0 18FF1280#F601F101FFFFFFFF
(1768394472.470428) can0 18FF2021#00000000FCFFFFFF
(1768394472.471279) can0 18FF2221#0000FEFFFFFFFFFF
(1768394472.478417) can0 18FF102C#FC0000FCFFFFFFFF
(1768394472.478738) can0 18FF1280#F501F901FFFFFFFF
(1768394472.478800) can0 18FF1381#96002E20FFFFFFFF
(1768394472.479467) can0 18FF1180#FC0000FFFFFFFFFF
(1768394472.480540) can0 18FF2021#00000000FCFFFFFF
(1768394472.489101) can0 18FF1280#F201F701FFFFFFFF
(1768394472.490737) can0 18FF2221#FDFF0D00FFFFFFFF
(1768394472.491153) can0 18FF2021#00000000FCFFFFFF
(1768394472.498413) can0 18FF1381#96002E20FFFFFFFF
(1768394472.498954) can0 18FF102C#FC0000FCFFFFFFFF
(1768394472.499169) can0 18FF1280#F601F501FFFFFFFF
(1768394472.499599) can0 18FF1180#FC0000FFFFFFFFFF
(1768394472.500888) can0 18FF2021#00000000FCFFFFFF
(1768394472.509202) can0 18FF1280#F701F001FFFFFFFF
(1768394472.510602) can0 18FF2121#00E40000FFFFFFFF
(1768394472.510823) can0 18FF2221#0700FBFFFFFFFFFF
(1768394472.511072) can0 18FF2021#00000000FCFFFFFF
(1768394472.518094) can0 18FF1180#FC0000FFFFFFFFFF
(1768394472.518173) can0 18FF1280#EE01F301FFFFFFFF
(1768394472.518309) can0 18FF14E6#D31FC3FFFFFFFFFF
(1768394472.518409) can0 18FF1381#96002E20FFFFFFFF
(1768394472.518572) can0 18FF102C#FC0000FCFFFFFFFF
(1768394472.519124) can0 18FEF100#FF2A1CFFFFFFFFFF
(1768394472.520920) can0 18FF2021#00000000FCFFFFFF
(1768394472.523282) can0 18FEBF0B#291C7D7D7D7DFFFF
(1768394472.528456) can0 18FF1280#F201EF01FFFFFFFF
(1768394472.530575) can0 18FF2221#F8FFF1FFFFFFFFFF
(1768394472.530647) can0 18FF2021#00000000FCFFFFFF
(1768394472.538510) can0 18FF1180#FC0000FFFFFFFFFF
(1768394472.538775) can0 18FF1381#96002E20FFFFFFFF
(1768394472.539337) can0 18FF102C#FC0000FCFFFFFFFF
(1768394472.539372) can0 18FF1280#F001EF01FFFFFFFF
(1768394472.540222) can0 18FF2021#00000000FCFFFFFF
(1768394472.549404) can0 18FF1280#F601F801FFFFFFFF
(1768394472.550208) can0 18FF2021#00000000FCFFFFFF
(1768394472.551132) can0 18FF2221#FEFF0000FFFFFFFF
(1768394472.558460) can0 18FF1280#F301F001FFFFFFFF
(1768394472.558585) can0 18FF1180#FC0000FFFFFFFFFF
(1768394472.559228) can0 18FF1381#96002E20FFFFFFFF
(1768394472.559598) can0 18FF102C#FC0000FCFFFFFFFF
(1768394472.560298) can0 18FF2121#00E40000FFFFFFFF
(1768394472.561140) can0 18FF2021#00000000FCFFFFFF
(1768394472.569186) can0 18FF1280#FC01F401FFFFFFFF
(1768394472.570125) can0 18FF2021#00000000FCFFFFFF
(1768394472.570687) can0 18FF2221#0E00FBFFFFFFFFFF
(1768394472.578424) can0 18FF102C#FC0000FCFFFFFFFF
(1768394472.578610) can0 18FF1180#FC0000FFFFFFFFFF
(1768394472.579154) can0 18FF1280#ED01F301FFFFFFFF
(1768394472.579417) can0 18FF1381#96002E20FFFFFFFF
(1768394472.580195) can0 18FF2021#00000000FCFFFFFF
(1768394472.589360) can0 18FF1280#F001F801FFFFFFFF
(1768394472.590626) can0 18FF2021#00000000FCFFFFFF
(1768394472.590824) can0 18FF2221#F5FF0700FFFFFFFF
(1768394472.598979) can0 18FF102C#FC0000FCFFFFFFFF
(1768394472.599207) can0 18FF1381#96002E20FFFFFFFF
(1768394472.599328) can0 18FF1280#ED01F501FFFFFFFF
(1768394472.599347) can0 18FF1180#FC0000FFFFFFFFFF
(1768394472.600116) can0 18FF2021#00000000FCFFFFFF
(1768394472.608931) can0 18FF1280#F301F201FFFFFFFF
(1768394472.610379) can0 18FF2121#00E40000FFFFFFFF
(1768394472.611192) can0 18FF2221#F4FFFEFFFFFFFFFF
(1768394472.611331) can0 18FF2021#00000000FCFFFFFF
(1768394472.618721) can0 18FF102C#FC0000FCFFFFFFFF
(1768394472.618809) can0 18FF1381#96002E20FFFFFFFF
(1768394472.619145) can0 18FF14E6#D31FC3FFFFFFFFFF
(1768394472.619407) can0 18FF1280#F401F501FFFFFFFF
(1768394472.619443) can0 18FEF100#FF2A1CFFFFFFFFFF
(1768394472.619567) can0 18FF1180#FC0000FFFFFFFFFF
(1768394472.620353) can0 18FF2021#00000000FCFFFFFF
(1768394472.623263) can0 18FEBF0B#291C7D7D7D7DFFFF
(1768394472.629399) can0 18FF1280#F601FA01FFFFFFFF
(1768394472.630466) can0 18FF2021#00000000FCFFFFFF
(1768394472.630543) can0 18FF2221#01001000FFFFFFFF
(1768394472.638441) can0 18FF102C#FC0000FCFFFFFFFF
(1768394472.639063) can0 18FF1381#96002E20FFFFFFFF
(1768394472.639083) can0 18FF1280#F301EF01FFFFFFFF
(1768394472.639473) can0 18FF1180#FC0000FFFFFFFFFF
(1768394472.640354) can0 18FF2021#00000000FCFFFFFF
(1768394472.649396) can0 18FF1280#F601F501FFFFFFFF
(1768394472.650213) can0 18FF2221#03000000FFFFFFFF
(1768394472.651075) can0 18FF2021#00000000FCFFFFFF
(1768394472.658343) can0 18FF1280#F301F501FFFFFFFF
(1768394472.658988) can0 18FF1381#96002E20FFFFFFFF
(1768394472.659470) can0 18FF102C#FC0000FCFFFFFFFF
(1768394472.659571) can0 18FF1180#FC0000FFFFFFFFFF
(1768394472.660930) can0 18FF2021#00000000FCFFFFFF
(1768394472.661002) can0 18FF2121#00E40000FFFFFFFF
(1768394472.669005) can0 18FF1280#ED01F201FFFFFFFF
(1768394472.670538) can0 18FF2221#F2FFFCFFFFFFFFFF
(1768394472.671342) can0 18FF2021#00000000FCFFFFFF
(1768394472.678842) can0 18FF1280#F001F401FFFFFFFF
(1768394472.678872) can0 18FF1180#FC0000FFFFFFFFFF
(1768394472.679059) can0 18FF102C#FC0000FCFFFFFFFF
(1768394472.679390) can0 18FF1381#96002E20FFFFFFFF
(1768394472.680917) can0 18FF2021#00000000FCFFFFFF
(1768394472.688420) can0 18FF1280#F101F701FFFFFFFF
(1768394472.690808) can0 18FF2221#F2FF0700FFFFFFFF
(1768394472.691333) can0 18FF2021#00000000FCFFFFFF
(1768394472.699321) can0 18FF1180#FC0000FFFFFFFFFF
(1768394472.699362) can0 18FF1381#96002E20FFFFFFFF
(1768394472.699533) can0 18FF1280#F501F701FFFFFFFF
(1768394472.699557) can0 18FF102C#FC0000FCFFFFFFFF
(1768394472.701188) can0 18FF2021#00000000FCFFFFFF
(1768394472.709136) can0 18FF1280#F401F501FFFFFFFF
(1768394472.710271) can0 18FF2221#FEFF0800FFFFFFFF
(1768394472.710983) can0 18FF2121#00E40000FFFFFFFF
(1768394472.711176) can0 18FF2021#00000000FCFFFFFF
(1768394472.718446) can0 18FF1180#FC0000FFFFFFFFFF
(1768394472.718796) can0 18FEF100#FF2A1CFFFFFFFFFF
(1768394472.719138) can0 18FF1280#EF01F701FFFFFFFF
(1768394472.719184) can0 18FF1381#96002E20FFFFFFFF
(1768394472.719309) can0 18FF102C#FC0000FCFFFFFFFF
(1768394472.719578) can0 18FF14E6#D31FC3FFFFFFFFFF
(1768394472.720143) can0 18FF2021#00000000FCFFFFFF
(1768394472.722989) can0 18FEBF0B#291C7D7D7D7DFFFF
(1768394472.728694) can0 18FF1280#F001F601FFFFFFFF
(1768394472.730238) can0 18FF2221#F2FF0B00FFFFFFFF
(1768394472.730859) can0 18FF2021#00000000FCFFFFFF
(1768394472.738175) can0 18FF1381#96002E20FFFFFFFF
(1768394472.738523) can0 18FF102C#FC0000FCFFFFFFFF
(1768394472.738954) can0 18FF1280#EC01EC01FFFFFFFF
(1768394472.739595) can0 18FF1180#FC0000FFFFFFFFFF
(1768394472.741138) can0 18FF2021#00000000FCFFFFFF
(1768394472.748591) can0 18FF1280#F701F101FFFFFFFF
(1768394472.750154) can0 18FF2021#00000000FCFFFFFF
(1768394472.750349) can0 18FF2221#FBFFF1FFFFFFFFFF
(1768394472.758128) can0 18FF1280#F801F501FFFFFFFF
(1768394472.758365) can0 18FF1381#96002E20FFFFFFFF
(1768394472.759204) can0 18FF1180#FC0000FFFFFFFFFF
(1768394472.759362) can0 18FF102C#FC0000FCFFFFFFFF
(1768394472.760306) can0 18FF2121#00E40000FFFFFFFF
(1768394472.760416) can0 18FF2021#00000000FCFFFFFF
(1768394472.769056) can0 18FF1280#F101FA01FFFFFFFF
(1768394472.770564) can0 18FF2221#FDFF0D00FFFFFFFF
(1768394472.771002) can0 18FF2021#00000000FCFFFFFF
(1768394472.778192) can0 18FF1381#96002E20FFFFFFFF
(1768394472.778510) can0 18FF102C#FC0000FCFFFFFFFF
(1768394472.778764) can0 18FF1280#F801FB01FFFFFFFF
(1768394472.778813) can0 18FF1180#FC0000FFFFFFFFFF
(1768394472.780317) can0 18FF2021#00000000FCFFFFFF
(1768394472.789253) can0 18FF1280#F701F501FFFFFFFF
(1768394472.790932) can0 18FF2021#00000000FCFFFFFF
(1768394472.791242) can0 18FF2221#09000E00FFFFFFFF
(1768394472.798103) can0 18FF1381#96002E20FFFFFFFF
(1768394472.798457) can0 18FF102C#FC0000FCFFFFFFFF
(1768394472.798618) can0 18FF1280#F601EE01FFFFFFFF
(1768394472.799559) can0 18FF1180#FC0000FFFFFFFFFF
(1768394472.801290) can0 18FF2021#00000000FCFFFFFF
(1768394472.808758) can0 18FF1280#F501F401FFFFFFFF
(1768394472.810376) can0 18FF2021#00000000FCFFFFFF
(1768394472.810944) can0 18FF2121#00E40000FFFFFFFF
(1768394472.810969) can0 18FF2221#0600FCFFFFFFFFFF
(1768394472.818111) can0 18FF1180#FC0000FFFFFFFFFF
(1768394472.818457) can0 18FEF100#FF2A1CFFFFFFFFFF
(1768394472.818510) can0 18FF102C#FC0000FCFFFFFFFF
(1768394472.818829) can0 18FF1381#96002E20FFFFFFFF
(1768394472.819495) can0 18FF14E6#D31FC3FFFFFFFFFF
(1768394472.819592) can0 18FF1280#F601E901FFFFFFFF
(1768394472.820405) can0 18FF2021#00000000FCFFFFFF
(1768394472.821281) can0 18FEBF0B#291C7D7D7D7DFFFF
(1768394472.828061) can0 18FF1280#EA01F201FFFFFFFF
(1768394472.830399) can0 18FF2021#00000000FCFFFFFF
(1768394472.831246) can0 18FF2221#F0FFECFFFFFFFFFF
(1768394472.838355) can0 18FF102C#FC0000FCFFFFFFFF
(1768394472.838365) can0 18FF1180#FC0000FFFFFFFFFF
(1768394472.838428) can0 18FF1381#96002E20FFFFFFFF
(1768394472.838605) can0 18FF1280#F501F301FFFFFFFF
(1768394472.841139) can0 18FF2021#00000000FCFFFFFF
(1768394472.848694) can0 18FF1280#EF01ED01FFFFFFFF
(1768394472.850180) can0 18FF2021#00000000FCFFFFFF
(1768394472.851368) can0 18FF2221#F3FFE8FFFFFFFFFF
(1768394472.858296) can0 18FF1381#96002E20FFFFFFFF
(1768394472.858468) can0 18FF102C#FC0000FCFFFFFFFF
(1768394472.858531) can0 18FF1180#FC0000FFFFFFFFFF
(1768394472.859585) can0 18FF1280#F401F501FFFFFFFF
(1768394472.860980) can0 18FF2121#00E40000FFFFFFFF
(1768394472.861363) can0 18FF2021#00000000FCFFFFFF
(1768394472.869240) can0 18FF1280#F801F401FFFFFFFF
(1768394472.870309) can0 18FF2021#00000000FCFFFFFF
(1768394472.870817) can0 18FF2221#0500FBFFFFFFFFFF
(1768394472.878598) can0 18FF1180#FC0000FFFFFFFFFF
(1768394472.878786) can0 18FF1381#96002E20FFFFFFFF
(1768394472.878885) can0 18FF1280#F401F201FFFFFFFF
(1768394472.879487) can0 18FF102C#FC0000FCFFFFFFFF
(1768394472.880348) can0 18FF2021#00000000FCFFFFFF
(1768394472.888563) can0 18FF1280#F701F601FFFFFFFF
(1768394472.890402) can0 18FF2221#07000100FFFFFFFF
(1768394472.891386) can0 18FF2021#00000000FCFFFFFF
(1768394472.898301) can0 18FF1280#F101F201FFFFFFFF
(1768394472.898305) can0 18FF102C#FC0000FCFFFFFFFF
(1768394472.899539) can0 18FF1381#96002E20FFFFFFFF
(1768394472.899562) can0 18FF1180#FC0000FFFFFFFFFF
(1768394472.900208) can0 18FF2021#00000000FCFFFFFF
(1768394472.909494) can0 18FF1280#F301F601FFFFFFFF
(1768394472.910266) can0 18FF2121#00E40000FFFFFFFF
(1768394472.911095) can0 18FF2021#00000000FCFFFFFF
(1768394472.911318) can0 18FF2221#FDFF0300FFFFFFFF
(1768394472.918570) can0 18FEF100#FF2A1CFFFFFFFFFF
(1768394472.918804) can0 18FF1381#96002E20FFFFFFFF
(1768394472.918810) can0 18FF1280#F601F201FFFFFFFF
(1768394472.918861) can0 18FF102C#FC0000FCFFFFFFFF
(1768394472.919220) can0 18FF14E6#D31FC3FFFFFFFFFF
(1768394472.919408) can0 18FF1180#FC0000FFFFFFFFFF
(1768394472.921128) can0 18FF2021#00000000FCFFFFFF
(1768394472.921598) can0 18FEBF0B#291C7D7D7D7DFFFF
(1768394472.929284) can0 18FF1280#F901F201FFFFFFFF
(1768394472.930848) can0 18FF2221#0B00F9FFFFFFFFFF
(1768394472.931220) can0 18FF2021#00000000FCFFFFFF
(1768394472.938204) can0 18FF1180#FC0000FFFFFFFFFF
(1768394472.938448) can0 18FF102C#FC0000FCFFFFFFFF
(1768394472.938879) can0 18FF1381#96002E20FFFFFFFF
(1768394472.939525) can0 18FF1280#F301F701FFFFFFFF
(1768394472.940271) can0 18FF2021#00000000FCFFFFFF
(1768394472.948300) can0 18FF1280#F301F501FFFFFFFF
(1768394472.950307) can0 18FF2221#00000500FFFFFFFF
(1768394472.950334) can0 18FF2021#00000000FCFFFFFF
(1768394472.958499) can0 18FF102C#FC0000FCFFFFFFFF
(1768394472.958746) can0 18FF1381#96002E20FFFFFFFF
(1768394472.959112) can0 18FF1280#F701F201FFFFFFFF
(1768394472.959118) can0 18FF1180#FC0000FFFFFFFFFF
(1768394472.960791) can0 18FF2121#00E40000FFFFFFFF
(1768394472.961141) can0 18FF2021#00000000FCFFFFFF
(1768394472.969085) can0 18FF1280#F501EE01FFFFFFFF
(1768394472.970702) can0 18FF2221#0500F0FFFFFFFFFF
(1768394472.970920) can0 18FF2021#00000000FCFFFFFF
(1768394472.978085) can0 18FF1280#F601F901FFFFFFFF
(1768394472.978573) can0 18FF1381#96002E20FFFFFFFF
(1768394472.978690) can0 18FF1180#FC0000FFFFFFFFFF
(1768394472.979061) can0 18FF102C#FC0000FCFFFFFFFF
(1768394472.980981) can0 18FF2021#00000000FCFFFFFF
(1768394472.988893) can0 18FF1280#F501F801FFFFFFFF
(1768394472.990348) can0 18FF2221#05000C00FFFFFFFF
(1768394472.991131) can0 18FF2021#00000000FCFFFFFF
(1768394472.998406) can0 18FF1381#96002E20FFFFFFFF
(1768394472.998418) can0 18FF1280#F101ED01FFFFFFFF
(1768394472.998539) can0 18FF102C#FC0000FCFFFFFFFF
(1768394472.998796) can0 18FF1180#FC0000FFFFFFFFFF
(1768394473.000187) can0 18FF2021#00000000FCFFFFFF
(1768394473.008139) can0 18FF1280#F501F401FFFFFFFF
(1768394473.010236) can0 18FF2021#00000000FCFFFFFF
(1768394473.010652) can0 18FF2221#0000FAFFFFFFFFFF
(1768394473.010855) can0 18FF2121#00E40000FFFFFFFF
(1768394473.018195) can0 18FF1381#96002E20FFFFFFFF
(1768394473.018288) can0 18FEF100#FF2A1CFFFFFFFFFF
(1768394473.018970) can0 18FF14E6#D31FC3FFFFFFFFFF
(1768394473.018978) can0 18FF1280#F501FA01FFFFFFFF
(1768394473.019131) can0 18FF1180#FC0000FFFFFFFFFF
(1768394473.019412) can0 18FF102C#FC0000FCFFFFFFFF
(1768394473.020264) can0 18FF2021#00000000FCFFFFFF
(1768394473.022631) can0 18FEBF0B#291C7D7D7D7DFFFF
(1768394473.029451) can0 18FF1280#F001F501FFFFFFFF
(1768394473.030320) can0 18FF2021#00000000FCFFFFFF
(1768394473.031355) can0 18FF2221#F9FF0900FFFFFFFF
(1768394473.038078) can0 18FF102C#FC0000FCFFFFFFFF
(1768394473.038534) can0 18FF1381#96002E20FFFFFFFF
(1768394473.038545) can0 18FF1280#F801F401FFFFFFFF
(1768394473.038748) can0 18FF1180#FC0000FFFFFFFFFF
(1768394473.040989) can0 18FF2021#00000000FCFFFFFF
(1768394473.049505) can0 18FF1280#F401F501FFFFFFFF
(1768394473.050219) can0 18FF2021#00000000FCFFFFFF
(1768394473.050767) can0 18FF2221#02000500FFFFFFFF
(1768394473.058221) can0 18FF102C#FC0000FCFFFFFFFF
(1768394473.058530) can0 18FF1280#F101F501FFFFFFFF
(1768394473.058656) can0 18FF1381#96002E20FFFFFFFF
(1768394473.058852) can0 18FF1180#FC0000FFFFFFFFFF
(1768394473.061025) can0 18FF2121#00E40000FFFFFFFF
(1768394473.061197) can0 18FF2021#00000000FCFFFFFF
(1768394473.069203) can0 18FF1280#F601F001FFFFFFFF
(1768394473.070763) can0 18FF2021#00000000FCFFFFFF
(1768394473.070885) can0 18FF2221#0200F8FFFFFFFFFF
(1768394473.078336) can0 18FF1180#FC0000FFFFFFFFFF
(1768394473.078496) can0 18FF1280#F801F801FFFFFFFF
(1768394473.078866) can0 18FF1381#96002E20FFFFFFFF
(1768394473.079498) can0 18FF102C#FC0000FCFFFFFFFF
(1768394473.081327) can0 18FF2021#00000000FCFFFFFF
(1768394473.089424) can0 18FF1280#F201F501FFFFFFFF
(1768394473.091174) can0 18FF2021#00000000FCFFFFFF
(1768394473.091273) can0 18FF2221#00000600FFFFFFFF
(1768394473.098263) can0 18FF1180#FC0000FFFFFFFFFF
(1768394473.098499) can0 18FF102C#FC0000FCFFFFFFFF
(1768394473.099211) can0 18FF1381#96002E20FFFFFFFF
(1768394473.099593) can0 18FF1280#EF01F201FFFFFFFF
(1768394473.100992) can0 18FF2021#00000000FCFFFFFF
(1768394473.108630) can0 18FF1280#F601F501FFFFFFFF
(1768394473.110374) can0 18FF2121#00E40000FFFFFFFF
(1768394473.111058) can0 18FF2021#00000000FCFFFFFF
(1768394473.111080) can0 18FF2221#FFFF0100FFFFFFFF
(1768394473.118202) can0 18FF1381#96002E20FFFFFFFF
(1768394473.118847) can0 18FF14E6#D31FC3FFFFFFFFFF
(1768394473.118907) can0 18FF1180#FC0000FFFFFFFFFF
(1768394473.118985) can0 18FF1280#F501F701FFFFFFFF
(1768394473.119371) can0 18FF102C#FC0000FCFFFFFFFF
(1768394473.119500) can0 18FEF100#FF2A1CFFFFFFFFFF
(1768394473.120661) can0 18FF2021#00000000FCFFFFFF
(1768394473.123322) can0 18FEBF0B#291C7D7D7D7DFFFF
(1768394473.129349) can0 18FF1280#F801F401FFFFFFFF
(1768394473.131025) can0 18FF2021#00000000FCFFFFFF
(1768394473.131083) can0 18FF2221#09000400FFFFFFFF
(1768394473.138389) can0 18FF1280#F601F101FFFFFFFF
(1768394473.138805) can0 18FF1381#96002E20FFFFFFFF
(1768394473.138860) can0 18FF102C#FC0000FCFFFFFFFF
(1768394473.139360) can0 18FF1180#FC0000FFFFFFFFFF
(1768394473.141235) can0 18FF2021#00000000FCFFFFFF
(1768394473.149058) can0 18FF1280#F201EF01FFFFFFFF
(1768394473.150873) can0 18FF2021#00000000FCFFFFFF
(1768394473.151113) can0 18FF2221#0000F1FFFFFFFFFF
(1768394473.158683) can0 18FF1381#96002E20FFFFFFFF
(1768394473.158773) can0 18FF102C#FC0000FCFFFFFFFF
(1768394473.158837) can0 18FF1180#FC0000FFFFFFFFFF
(1768394473.159375) can0 18FF1280#F001F401FFFFFFFF
(1768394473.160120) can0 18FF2021#00000000FCFFFFFF
(1768394473.160194) can0 18FF2121#00E40000FFFFFFFF
(1768394473.168825) can0 18FF1280#F701F501FFFFFFFF
(1768394473.170200) can0 18FF2221#0200FFFFFFFFFFFF
(1768394473.170964) can0 18FF2021#00000000FCFFFFFF
(1768394473.178175) can0 18FF102C#FC0000FCFFFFFFFF
(1768394473.178208) can0 18FF1280#F401F201FFFFFFFF
(1768394473.178211) can0 18FF1180#FC0000FFFFFFFFFF
(1768394473.178301) can0 18FF1381#96002E20FFFFFFFF
(1768394473.180851) can0 18FF2021#00000000FCFFFFFF
(1768394473.188122) can0 18FF1280#F201F601FFFFFFFF
(1768394473.190306) can0 18FF2221#FDFF0200FFFFFFFF
(1768394473.191197) can0 18FF2021#00000000FCFFFFFF
(1768394473.198480) can0 18FF1280#F101F301FFFFFFFF
(1768394473.198539) can0 18FF1180#FC0000FFFFFFFFFF
(1768394473.198626) can0 18FF1381#96002E20FFFFFFFF
(1768394473.198924) can0 18FF102C#FC0000FCFFFFFFFF
(1768394473.200792) can0 18FF2021#00000000FCFFFFFF
(1768394473.208826) can0 18FF1280#F501F201FFFFFFFF
(1768394473.210936) can0 18FF2221#FEFFFAFFFFFFFFFF
(1768394473.211003) can0 18FF2021#00000000FCFFFFFF
(1768394473.211242) can0 18FF2121#00E40000FFFFFFFF
(1768394473.218123) can0 18FF1381#96002E20FFFFFFFF
(1768394473.218441) can0 18FEF100#FF2A1CFFFFFFFFFF
(1768394473.218511) can0 18FF14E6#D31FC3FFFFFFFFFF
(1768394473.219082) can0 18FF1180#FC0000FFFFFFFFFF
(1768394473.219100) can0 18FF102C#FC0000FCFFFFFFFF
(1768394473.219102) can0 18FF1280#F401F001FFFFFFFF
(1768394473.220576) can0 18FF2021#00000000FCFFFFFF
(1768394473.222075) can0 18FEBF0B#291C7D7D7D7DFFFF
(1768394473.228139) can0 18FF1280#F401F001FFFFFFFF
(1768394473.230222) can0 18FF2221#0000F0FFFFFFFFFF
(1768394473.231120) can0 18FF2021#00000000FCFFFFFF
(1768394473.238240) can0 18FF1280#F801EF01FFFFFFFF
(1768394473.238557) can0 18FF102C#FC0000FCFFFFFFFF
(1768394473.239127) can0 18FF1180#FC0000FFFFFFFFFF
(1768394473.239473) can0 18FF1381#96002E20FFFFFFFF
(1768394473.240195) can0 18FF2021#00000000FCFFFFFF
(1768394473.248176) can0 18FF1280#F001F401FFFFFFFF
(1768394473.250881) can0 18FF2021#00000000FCFFFFFF
(1768394473.251303) can0 18FF2221#FCFFF6FFFFFFFFFF
(1768394473.258193) can0 18FF1381#96002E20FFFFFFFF
(1768394473.258735) can0 18FF1280#EF01F501FFFFFFFF
(1768394473.258985) can0 18FF1180#FC0000FFFFFFFFFF
(1768394473.259095) can0 18FF102C#FC0000FCFFFFFFFF
(1768394473.260426) can0 18FF2021#00000000FCFFFFFF
(1768394473.260520) can0 18FF2121#00E40000FFFFFFFF
(1768394473.268192) can0 18FF1280#F401F401FFFFFFFF
(1768394473.270195) can0 18FF2021#00000000FCFFFFFF
(1768394473.271251) can0 18FF2221#FAFFFFFFFFFFFFFF
(1768394473.278359) can0 18FF1280#F101F201FFFFFFFF
(1768394473.279261) can0 18FF1381#96002E20FFFFFFFF
(1768394473.279308) can0 18FF1180#FC0000FFFFFFFFFF
(1768394473.279399) can0 18FF102C#FC0000FCFFFFFFFF
(1768394473.280740) can0 18FF2021#00000000FCFFFFFF
(1768394473.289056) can0 18FF1280#F301F501FFFFFFFF
(1768394473.290940) can0 18FF2021#00000000FCFFFFFF
(1768394473.291210) can0 18FF2221#F9FF0000FFFFFFFF
(1768394473.299011) can0 18FF1381#96002E20FFFFFFFF
(1768394473.299011) can0 18FF1280#F101F901FFFFFFFF
(1768394473.299075) can0 18FF1180#FC0000FFFFFFFFFF
(1768394473.299103) can0 18FF102C#FC0000FCFFFFFFFF
(1768394473.301358) can0 18FF2021#00000000FCFFFFFF
(1768394473.308987) can0 18FF1280#FA01F201FFFFFFFF
(1768394473.310369) can0 18FECA21#00FF00000000FFFF
(1768394473.310607) can0 18FF2121#00E40000FFFFFFFF
(1768394473.310612) can0 18FF2021#00000000FCFFFFFF
(1768394473.311070) can0 18FF2221#07000100FFFFFFFF
(1768394473.318080) can0 18FF1180#FC0000FFFFFFFFFF
(1768394473.318666) can0 18FF1381#96002E20FFFFFFFF
(1768394473.318725) can0 18FEF100#FF2A1CFFFFFFFFFF
(1768394473.319015) can0 18FF1280#F501F301FFFFFFFF
(1768394473.319016) can0 18FF14E6#D31FC3FFFFFFFFFF
(1768394473.319448) can0 18FEF500#FFFFFF8E1FFFFFFF
(1768394473.319546) can0 18FF102C#FC0000FCFFFFFFFF
(1768394473.321294) can0 18FF2021#00000000FCFFFFFF
(1768394473.323415) can0 18FEBF0B#291C7D7D7D7DFFFF
(1768394473.324515) can0 18FEE617#30290C0138267D7E
(1768394473.325715) can0 18FCB7F3#C3FF2C01FFFFFFFF
(1768394473.328117) can0 18FF1280#F601F601FFFFFFFF
(1768394473.330769) can0 18FF2221#07000400FFFFFFFF
(1768394473.331301) can0 18FF2021#00000000FCFFFFFF
(1768394473.338298) can0 18FF1280#F501F001FFFFFFFF
(1768394473.338560) can0 18FF102C#FC0000FCFFFFFFFF
(1768394473.338985) can0 18FF1381#96002E20FFFFFFFF
(1768394473.339211) can0 18FF1180#FC0000FFFFFFFFFF
(1768394473.340937) can0 18FF2021#00000000FCFFFFFF
(1768394473.348884) can0 18FF1280#F301F901FFFFFFFF
(1768394473.350884) can0 18FF2021#00000000FCFFFFFF
(1768394473.351007) can0 18FF2221#01000900FFFFFFFF
(1768394473.358130) can0 18FF1180#FC0000FFFFFFFFFF
(1768394473.358264) can0 18FF1280#F001F601FFFFFFFF
(1768394473.358391) can0 18FF1381#96002E20FFFFFFFF
(1768394473.359340) can0 18FF102C#FC0000FCFFFFFFFF
(1768394473.360269) can0 18FF2021#00000000FCFFFFFF
(1768394473.361306) can0 18FF2121#00E40000FFFFFFFF
(1768394473.368217) can0 18FF1280#F301F401FFFFFFFF
(1768394473.370514) can0 18FF2021#00000000FCFFFFFF
(1768394473.370560) can0 18FF2221#FAFF0500FFFFFFFF
(1768394473.378133) can0 18FF1280#FF01F101FFFFFFFF
(1768394473.378697) can0 18FF102C#FC0000FCFFFFFFFF
(1768394473.379340) can0 18FF1381#96002E20FFFFFFFF
(1768394473.379377) can0 18FF1180#FC0000FFFFFFFFFF
(1768394473.380443) can0 18FF2021#00000000FCFFFFFF
(1768394473.389328) can0 18FF1280#F301ED01FFFFFFFF
(1768394473.390445) can0 18FF2021#00000000FCFFFFFF
(1768394473.390614) can0 18FF2221#0800ECFFFFFFFFFF
(1768394473.398557) can0 18FF1180#FC0000FFFFFFFFFF
(1768394473.398636) can0 18FF1280#F101F101FFFFFFFF
(1768394473.399084) can0 18FF102C#FC0000FCFFFFFFFF
(1768394473.399200) can0 18FF1381#96002E20FFFFFFFF
(1768394473.400361) can0 18FF2021#00000000FCFFFFFF
(1768394473.409411) can0 18FF1280#EE01F601FFFFFFFF
(1768394473.410326) can0 18FF2121#00E40000FFFFFFFF
(1768394473.410637) can0 18FF2221#F3FFFCFFFFFFFFFF
(1768394473.410662) can0 18FF2021#00000000FCFFFFFF
(1768394473.418066) can0 18FF1180#FC0000FFFFFFFFFF
(1768394473.418252) can0 18FEF100#FF2A1CFFFFFFFFFF
(1768394473.418298) can0 18FF14E6#D31FC3FFFFFFFFFF
(1768394473.419197) can0 18FF1280#F201EE01FFFFFFFF
(1768394473.419215) can0 18FF1381#96002E20FFFFFFFF
(1768394473.419504) can0 18FF102C#FC0000FCFFFFFFFF
(1768394473.421167) can0 18FF2021#00000000FCFFFFFF
(1768394473.422425) can0 18FEBF0B#291C7D7D7D7DFFFF
(1768394473.429261) can0 18FF1280#F701F401FFFFFFFF
(1768394473.430504) can0 18FF2021#00000000FCFFFFFF
(1768394473.430568) can0 18FF2221#0100F8FFFFFFFFFF
(1768394473.438310) can0 18FF102C#FC0000FCFFFFFFFF
(1768394473.438549) can0 18FF1280#F701F201FFFFFFFF
(1768394473.438822) can0 18FF1180#FC0000FFFFFFFFFF
(1768394473.439145) can0 18FF1381#96002E20FFFFFFFF
(1768394473.440663) can0 18FF2021#00000000FCFFFFFF
(1768394473.448575) can0 18FF1280#F101F601FFFFFFFF
(1768394473.450835) can0 18FF2021#00000000FCFFFFFF
(1768394473.451398) can0 18FF2221#FDFF0000FFFFFFFF
(1768394473.458125) can0 18FF1381#96002E20FFFFFFFF
(1768394473.458727) can0 18FF1180#FC0000FFFFFFFFFF
(1768394473.459285) can0 18FF102C#FC0000FCFFFFFFFF
(1768394473.459313) can0 18FF1280#F201F501FFFFFFFF
(1768394473.460591) can0 18FF2021#00000000FCFFFFFF
(1768394473.461298) can0 18FF2121#00E40000FFFFFFFF
(1768394473.468771) can0 18FF1280#F801F801FFFFFFFF
(1768394473.470252) can0 18FF2021#00000000FCFFFFFF
(1768394473.471323) can0 18FF2221#05000B00FFFFFFFF
(1768394473.478052) can0 18FF1381#96002E20FFFFFFFF
(1768394473.478890) can0 18FF1280#F001F801FFFFFFFF
(1768394473.478954) can0 18FF1180#FC0000FFFFFFFFFF
(1768394473.479124) can0 18FF102C#FC0000FCFFFFFFFF
(1768394473.480896) can0 18FF2021#00000000FCFFFFFF
(1768394473.489217) can0 18FF1280#F301F901FFFFFFFF
(1768394473.490226) can0 18FF2021#00000000FCFFFFFF
(1768394473.490306) can0 18FF2221#FBFF1400FFFFFFFF
(1768394473.498583) can0 18FF1381#96002E20FFFFFFFF
(1768394473.498731) can0 18FF1280#F401F401FFFFFFFF
(1768394473.499032) can0 18FF102C#FC0000FCFFFFFFFF
(1768394473.499571) can0 18FF1180#FC0000FFFFFFFFFF
(1768394473.500805) can0 18FF2021#00000000FCFFFFFF
(1768394473.508502) can0 18FF1280#F901FA01FFFFFFFF
(1768394473.510691) can0 18FF2221#09001400FFFFFFFF
(1768394473.510710) can0 18FF2021#00000000FCFFFFFF
(1768394473.510986) can0 18FF2121#00E40000FFFFFFFF
(1768394473.518183) can0 18FF14E6#D31FC3FFFFFFFFFF
(1768394473.518570) can0 18FF102C#FC0000FCFFFFFFFF
(1768394473.518872) can0 18FF1180#FC0000FFFFFFFFFF
(1768394473.519273) can0 18FF1280#EA01F301FFFFFFFF
(1768394473.519450) can0 18FEF100#FF2A1CFFFFFFFFFF
(1768394473.519470) can0 18FF1381#96002E20FFFFFFFF
(1768394473.520743) can0 18FF2021#00000000FCFFFFFF
(1768394473.521934) can0 18FEBF0B#291C7D7D7D7DFFFF
(1768394473.528351) can0 18FF1280#ED01F201FFFFFFFF
(1768394473.530767) can0 18FF2021#00000000FCFFFFFF
(1768394473.530891) can0 18FF2221#EAFFFFFFFFFFFFFF
(1768394473.539077) can0 18FF1280#F601F001FFFFFFFF
(1768394473.539538) can0 18FF1180#FC0000FFFFFFFFFF
(1768394473.539558) can0 18FF1381#96002E20FFFFFFFF
(1768394473.539589) can0 18FF102C#FC0000FCFFFFFFFF
(1768394473.541137) can0 18FF2021#00000000FCFFFFFF
(1768394473.548482) can0 18FF1280#EC01F101FFFFFFFF
(1768394473.550732) can0 18FF2221#EDFFF3FFFFFFFFFF
(1768394473.550979) can0 18FF2021#00000000FCFFFFFF
(1768394473.558172) can0 18FF102C#FC0000FCFFFFFFFF
(1768394473.559058) can0 18FF1280#EE01F601FFFFFFFF
(1768394473.559452) can0 18FF1381#96002E20FFFFFFFF
(1768394473.559486) can0 18FF1180#FC0000FFFFFFFFFF
(1768394473.561265) can0 18FF2121#00E40000FFFFFFFF
(1768394473.561281) can0 18FF2021#00000000FCFFFFFF
(1768394473.568747) can0 18FF1280#F301F001FFFFFFFF
(1768394473.570276) can0 18FF2221#F3FFF5FFFFFFFFFF
(1768394473.570658) can0 18FF2021#00000000FCFFFFFF
(1768394473.578245) can0 18FF1381#96002E20FFFFFFFF
(1768394473.578444) can0 18FF1280#F301FD01FFFFFFFF
(1768394473.578506) can0 18FF1180#FC0000FFFFFFFFFF
(1768394473.579484) can0 18FF102C#FC0000FCFFFFFFFF
(1768394473.580512) can0 18FF2021#00000000FCFFFFFF
(1768394473.588704) can0 18FF1280#F501FB01FFFFFFFF
(1768394473.590356) can0 18FF2221#FEFF1A00FFFFFFFF
(1768394473.591357) can0 18FF2021#00000000FCFFFFFF
(1768394473.598798) can0 18FF1180#FC0000FFFFFFFFFF
(1768394473.598899) can0 18FF102C#FC0000FCFFFFFFFF
(1768394473.599020) can0 18FF1280#F201FA01FFFFFFFF
(1768394473.599122) can0 18FF1381#96002E20FFFFFFFF
(1768394473.601082) can0 18FF2021#00000000FCFFFFFF
(1768394473.609580) can0 18FF1280#F401F501FFFFFFFF
(1768394473.610635) can0 18FF2221#FDFF1100FFFFFFFF
(1768394473.610810) can0 18FF2021#00000000FCFFFFFF
(1768394473.611227) can0 18FF2121#00E40000FFFFFFFF
(1768394473.618344) can0 18FF1180#FC0000FFFFFFFFFF
(1768394473.618641) can0 18FF1280#F301F701FFFFFFFF
(1768394473.618781) can0 18FF1381#96002E20FFFFFFFF
(1768394473.618836) can0 18FF14E6#D31FC3FFFFFFFFFF
(1768394473.619391) can0 18FF102C#FC0000FCFFFFFFFF
(1768394473.619453) can0 18FEF100#FF2A1CFFFFFFFFFF
(1768394473.620315) can0 18FF2021#00000000FCFFFFFF
(1768394473.622407) can0 18FEBF0B#291C7D7D7D7DFFFF
(1768394473.629419) can0 18FF1280#F501F501FFFFFFFF
(1768394473.630322) can0 18FF2021#00000000FCFFFFFF
(1768394473.630717) can0 18FF2221#00000A00FFFFFFFF
(1768394473.638164) can0 18FF1180#FC0000FFFFFFFFFF
(1768394473.638542) can0 18FF102C#FC0000FCFFFFFFFF
(1768394473.638686) can0 18FF1381#96002E20FFFFFFFF
(1768394473.638934) can0 18FF1280#F301FA01FFFFFFFF
(1768394473.640393) can0 18FF2021#00000000FCFFFFFF
(1768394473.648529) can0 18FF1280#F001F601FFFFFFFF
(1768394473.650758) can0 18FF2021#00000000FCFFFFFF
(1768394473.650896) can0 18FF2221#F7FF0F00FFFFFFFF
(1768394473.658823) can0 18FF102C#FC0000FCFFFFFFFF
(1768394473.659046) can0 18FF1381#96002E20FFFFFFFF
(1768394473.659346) can0 18FF1180#FC0000FFFFFFFFFF
(1768394473.659391) can0 18FF1280#F501F301FFFFFFFF
(1768394473.660576) can0 18FF2121#00E40000FFFFFFFF
(1768394473.661385) can0 18FF2021#00000000FCFFFFFF
(1768394473.668112) can0 18FF1280#F201F301FFFFFFFF
(1768394473.670160) can0 18FF2021#00000000FCFFFFFF
(1768394473.670890) can0 18FF2221#FBFF0000FFFFFFFF
(1768394473.678068) can0 18FF102C#FC0000FCFFFFFFFF
(1768394473.678246) can0 18FF1280#F101F301FFFFFFFF
(1768394473.678359) can0 18FF1381#96002E20FFFFFFFF
(1768394473.679422) can0 18FF1180#FC0000FFFFFFFFFF
(1768394473.680356) can0 18FF2021#00000000FCFFFFFF
(1768394473.688831) can0 18FF1280#FC01EC01FFFFFFFF
(1768394473.690294) can0 18FF2021#00000000FCFFFFFF
(1768394473.691065) can0 18FF2221#0C00EBFFFFFFFFFF
(1768394473.698139) can0 18FF1381#96002E20FFFFFFFF
(1768394473.698293) can0 18FF102C#FC0000FCFFFFFFFF
(1768394473.699014) can0 18FF1180#FC0000FFFFFFFFFF
(1768394473.699266) can0 18FF1280#F401EE01FFFFFFFF
(1768394473.700619) can0 18FF2021#00000000FCFFFFFF
(1768394473.708216) can0 18FF1280#FC01F601FFFFFFFF
(1768394473.710107) can0 18FF2221#1300F8FFFFFFFFFF
(1768394473.710656) can0 18FF2121#00E40000FFFFFFFF
(1768394473.711007) can0 18FF2021#00000000FCFFFFFF
(1768394473.718054) can0 18FF1381#96002E20FFFFFFFF
(1768394473.718808) can0 18FF1180#FC0000FFFFFFFFFF
(1768394473.719051) can0 18FF1280#F701F301FFFFFFFF
(1768394473.719081) can0 18FF102C#FC0000FCFFFFFFFF
(1768394473.719172) can0 18FF14E6#D31FC3FFFFFFFFFF
(1768394473.719391) can0 18FEF100#FF2A1CFFFFFFFFFF
(1768394473.721321) can0 18FF2021#00000000FCFFFFFF
(1768394473.722881) can0 18FEBF0B#291C7D7D7D7DFFFF
(1768394473.728147) can0 18FF1280#F701F601FFFFFFFF
(1768394473.730153) can0 18FF2021#00000000FCFFFFFF
(1768394473.730386) can0 18FF2221#0E000200FFFFFFFF
(1768394473.739147) can0 18FF102C#FC0000FCFFFFFFFF
(1768394473.739184) can0 18FF1180#FC0000FFFFFFFFFF
(1768394473.739206) can0 18FF1381#96002E20FFFFFFFF
(1768394473.739491) can0 18FF1280#EF01F901FFFFFFFF
(1768394473.740811) can0 18FF2021#00000000FCFFFFFF
(1768394473.748356) can0 18FF1280#F501F301FFFFFFFF
(1768394473.750188) can0 18FF2221#00000400FFFFFFFF
(1768394473.750557) can0 18FF2021#00000000FCFFFFFF
(1768394473.758067) can0 18FF1180#FC0000FFFFFFFFFF
(1768394473.758229) can0 18FF1280#F601F201FFFFFFFF
(1768394473.759424) can0 18FF1381#96002E20FFFFFFFF
(1768394473.759596) can0 18FF102C#FC0000FCFFFFFFFF
(1768394473.760405) can0 18FF2021#00000000FCFFFFFF
(1768394473.760817) can0 18FF2121#00E40000FFFFFFFF
(1768394473.768644) can0 18FF1280#FA01F901FFFFFFFF
(1768394473.770141) can0 18FF2221#0E000B00FFFFFFFF
(1768394473.770531) can0 18FF2021#00000000FCFFFFFF
(1768394473.778977) can0 18FF102C#FC0000FCFFFFFFFF
(1768394473.779287) can0 18FF1280#F101F201FFFFFFFF
(1768394473.779355) can0 18FF1180#FC0000FFFFFFFFFF
(1768394473.779470) can0 18FF1381#96002E20FFFFFFFF
(1768394473.781062) can0 18FF2021#00000000FCFFFFFF
(1768394473.789093) can0 18FF1280#F201ED01FFFFFFFF
(1768394473.791126) can0 18FF2021#00000000FCFFFFFF
(1768394473.791381) can0 18FF2221#FDFFEFFFFFFFFFFF
(1768394473.798254) can0 18FF1280#EE01FA01FFFFFFFF
(1768394473.798282) can0 18FF1381#96002E20FFFFFFFF
(1768394473.798574) can0 18FF1180#FC0000FFFFFFFFFF
(1768394473.799312) can0 18FF102C#FC0000FCFFFFFFFF
(1768394473.800142) can0 18FF2021#00000000FCFFFFFF
(1768394473.809484) can0 18FF1280#F501FA01FFFFFFFF
(1768394473.810673) can0 18FF2221#FBFF1200FFFFFFFF
(1768394473.810862) can0 18FF2121#00E40000FFFFFFFF
(1768394473.810969) can0 18FF2021#00000000FCFFFFFF
(1768394473.818220) can0 18FF102C#FC0000FCFFFFFFFF
(1768394473.818349) can0 18FF1280#F801FA01FFFFFFFF
(1768394473.818545) can0 18FEF100#FF2A1CFFFFFFFFFF
(1768394473.818589) can0 18FF14E6#D31FC3FFFFFFFFFF
(1768394473.818763) can0 18FF1180#FC0000FFFFFFFFFF
(1768394473.818904) can0 18FF1381#96002E20FFFFFFFF
(1768394473.820581) can0 18FF2021#00000000FCFFFFFF
(1768394473.821436) can0 18FEBF0B#291C7D7D7D7DFFFF
(1768394473.829451) can0 18FF1280#EC01F301FFFFFFFF
(1768394473.830717) can0 18FF2021#00000000FCFFFFFF
(1768394473.831044) can0 18FF2221#F3FF0A00FFFFFFFF
(1768394473.838112) can0 18FF1180#FC0000FFFFFFFFFF
(1768394473.838310) can0 18FF1381#96002E20FFFFFFFF
(1768394473.838474) can0 18FF102C#FC0000FCFFFFFFFF
(1768394473.839533) can0 18FF1280#F601F301FFFFFFFF
(1768394473.840989) can0 18FF2021#00000000FCFFFFFF
(1768394473.848730) can0 18FF1280#F301F601FFFFFFFF
(1768394473.850539) can0 18FF2021#00000000FCFFFFFF
(1768394473.851244) can0 18FF2221#FDFF0600FFFFFFFF
(1768394473.858530) can0 18FF1381#96002E20FFFFFFFF
(1768394473.859049) can0 18FF102C#FC0000FCFFFFFFFF
(1768394473.859068) can0 18FF1180#FC0000FFFFFFFFFF
(1768394473.859531) can0 18FF1280#FA01F701FFFFFFFF
(1768394473.860327) can0 18FF2121#00E40000FFFFFFFF
(1768394473.861249) can0 18FF2021#00000000FCFFFFFF
(1768394473.868101) can0 18FF1280#F101F901FFFFFFFF
(1768394473.870296) can0 18FF2221#FFFF1200FFFFFFFF
(1768394473.870943) can0 18FF2021#00000000FCFFFFFF
(1768394473.878635) can0 18FF1280#F101F901FFFFFFFF
(1768394473.879146) can0 18FF1180#FC0000FFFFFFFFFF
(1768394473.879198) can0 18FF1381#96002E20FFFFFFFF
(1768394473.879571) can0 18FF102C#FC0000FCFFFFFFFF
(1768394473.881279) can0 18FF2021#00000000FCFFFFFF
(1768394473.888323) can0 18FF1280#F401F801FFFFFFFF
(1768394473.890491) can0 18FF2021#00000000FCFFFFFF
(1768394473.890531) can0 18FF2221#FDFF1500FFFFFFFF
(1768394473.899067) can0 18FF1381#96002E20FFFFFFFF
(1768394473.899342) can0 18FF1180#FC0000FFFFFFFFFF
(1768394473.899351) can0 18FF1280#F301FC01FFFFFFFF
(1768394473.899484) can0 18FF102C#FC0000FCFFFFFFFF
(1768394473.900740) can0 18FF2021#00000000FCFFFFFF
(1768394473.909448) can0 18FF1280#FC01EF01FFFFFFFF
(1768394473.910262) can0 18FF2121#00E40000FFFFFFFF
(1768394473.910702) can0 18FF2221#0E000300FFFFFFFF
(1768394473.911261) can0 18FF2021#00000000FCFFFFFF
(1768394473.918142) can0 18FF1180#FC0000FFFFFFFFFF
(1768394473.918250) can0 18FF14E6#D31FC3FFFFFFFFFF
(1768394473.918343) can0 18FF1381#96002E20FFFFFFFF
(1768394473.918887) can0 18FF1280#EF01E901FFFFFFFF
(1768394473.919147) can0 18FEF100#FF2A1CFFFFFFFFFF
(1768394473.919296) can0 18FF102C#FC0000FCFFFFFFFF
(1768394473.921107) can0 18FF2021#00000000FCFFFFFF
(1768394473.922488) can0 18FEBF0B#291C7D7D7D7DFFFF
(1768394473.928690) can0 18FF1280#F701F301FFFFFFFF
(1768394473.930961) can0 18FF2221#0500F0FFFFFFFFFF
(1768394473.931322) can0 18FF2021#00000000FCFFFFFF
(1768394473.938060) can0 18FF1381#96002E20FFFFFFFF
(1768394473.938343) can0 18FF102C#FC0000FCFFFFFFFF
(1768394473.938535) can0 18FF1280#F201F401FFFFFFFF
(1768394473.938702) can0 18FF1180#FC0000FFFFFFFFFF
(1768394473.941018) can0 18FF2021#00000000FCFFFFFF
(1768394473.948487) can0 18FF1280#F401F401FFFFFFFF
(1768394473.950192) can0 18FF2221#FFFFFCFFFFFFFFFF
(1768394473.950240) can0 18FF2021#00000000FCFFFFFF
(1768394473.958081) can0 18FF1381#96002E20FFFFFFFF
(1768394473.958172) can0 18FF1280#F201F701FFFFFFFF
(1768394473.958377) can0 18FF1180#FC0000FFFFFFFFFF
(1768394473.959077) can0 18FF102C#FC0000FCFFFFFFFF
(1768394473.960516) can0 18FF2021#00000000FCFFFFFF
(1768394473.961270) can0 18FF2121#00E40000FFFFFFFF
(1768394473.969031) can0 18FF1280#F001F801FFFFFFFF
(1768394473.970495) can0 18FF2221#F6FF0D00FFFFFFFF
(1768394473.971062) can0 18FF2021#00000000FCFFFFFF
(1768394473.978343) can0 18FF1180#FC0000FFFFFFFFFF
(1768394473.978442) can0 18FF102C#FC0000FCFFFFFFFF
(1768394473.979029) can0 18FF1381#96002E20FFFFFFFF
(1768394473.979459) can0 18FF1280#F501EF01FFFFFFFF
(1768394473.981297) can0 18FF2021#00000000FCFFFFFF
(1768394473.988578) can0 18FF1280#EB01F601FFFFFFFF
(1768394473.990193) can0 18FF2221#ECFF0200FFFFFFFF
(1768394473.990436) can0 18FF2021#00000000FCFFFFFF
(1768394473.998280) can0 18FF1180#FC0000FFFFFFFFFF
(1768394473.998621) can0 18FF102C#FC0000FCFFFFFFFF
(1768394473.999315) can0 18FF1280#F901F601FFFFFFFF
(1768394473.999331) can0 18FF1381#96002E20FFFFFFFF
(1768394474.000859) can0 18FF2021#00000000FCFFFFFF
(1768394474.009457) can0 18FF1280#F801F001FFFFFFFF
(1768394474.010451) can0 18FF2121#00E40000FFFFFFFF
(1768394474.010488) can0 18FF2021#00000000FCFFFFFF
(1768394474.010568) can0 18FF2221#0800F9FFFFFFFFFF
(1768394474.018148) can0 18FF1280#F701FC01FFFFFFFF
(1768394474.018329) can0 18FF14E6#D31FC3FFFFFFFFFF
(1768394474.018451) can0 18FF1180#FC0000FFFFFFFFFF
(1768394474.018813) can0 18FF1381#96002E20FFFFFFFF
(1768394474.018922) can0 18FEF100#FF2A1CFFFFFFFFFF
(1768394474.019475) can0 18FF102C#FC0000FCFFFFFFFF
(1768394474.020561) can0 18FF2021#00000000FCFFFFFF
(1768394474.022734) can0 18FEBF0B#291C7D7D7D7DFFFF
(1768394474.029366) can0 18FF1280#E901F201FFFFFFFF
(1768394474.030499) can0 18FF2221#EFFF0300FFFFFFFF
(1768394474.030590) can0 18FF2021#00000000FCFFFFFF
(1768394474.038291) can0 18FF1381#96002E20FFFFFFFF
(1768394474.038576) can0 18FF102C#FC0000FCFFFFFFFF
(1768394474.038889) can0 18FF1280#F901F701FFFFFFFF
(1768394474.039160) can0 18FF1180#FC0000FFFFFFFFFF
(1768394474.040894) can0 18FF2021#00000000FCFFFFFF
(1768394474.049139) can0 18FF1280#F701F001FFFFFFFF
(1768394474.050266) can0 18FF2221#0700FBFFFFFFFFFF
(1768394474.050635) can0 18FF2021#00000000FCFFFFFF
(1768394474.058736) can0 18FF1180#FC0000FFFFFFFFFF
(1768394474.058823) can0 18FF102C#FC0000FCFFFFFFFF
(1768394474.058834) can0 18FF1280#F101FD01FFFFFFFF
(1768394474.059002) can0 18FF1381#96002E20FFFFFFFF
(1768394474.060311) can0 18FF2021#00000000FCFFFFFF
(1768394474.060346) can0 18FF2121#00E40000FFFFFFFF
(1768394474.068579) can0 18FF1280#EE01F501FFFFFFFF
(1768394474.070611) can0 18FF2221#F3FF0C00FFFFFFFF
(1768394474.070768) can0 18FF2021#00000000FCFFFFFF
(1768394474.078219) can0 18FF102C#FC0000FCFFFFFFFF
(1768394474.078635) can0 18FF1280#F001F101FFFFFFFF
(1768394474.078836) can0 18FF1381#96002E20FFFFFFFF
(1768394474.079039) can0 18FF1180#FC0000FFFFFFFFFF
(1768394474.080880) can0 18FF2021#00000000FCFFFFFF
(1768394474.089290) can0 18FF1280#F601F801FFFFFFFF
(1768394474.090136) can0 18FF2221#FDFF0900FFFFFFFF
(1768394474.090572) can0 18FF2021#00000000FCFFFFFF
(1768394474.098445) can0 18FF1180#FC0000FFFFFFFFFF
(1768394474.099021) can0 18FF102C#FC0000FCFFFFFFFF
(1768394474.099425) can0 18FF1280#F701F601FFFFFFFF
(1768394474.099553) can0 18FF1381#96002E20FFFFFFFF
(1768394474.100459) can0 18FF2021#00000000FCFFFFFF
(1768394474.108120) can0 18FF1280#F701FC01FFFFFFFF
(1768394474.110784) can0 18FF2221#08001900FFFFFFFF
(1768394474.110897) can0 18FF2121#00E40000FFFFFFFF
(1768394474.111064) can0 18FF2021#00000000FCFFFFFF
(1768394474.118704) can0 18FEF100#FF2A1CFFFFFFFFFF
(1768394474.118704) can0 18FF1280#F801F701FFFFFFFF
(1768394474.119016) can0 18FF14E6#D31FC3FFFFFFFFFF
(1768394474.119140) can0 18FF102C#FC0000FCFFFFFFFF
(1768394474.119355) can0 18FF1381#96002E20FFFFFFFF
(1768394474.119397) can0 18FF1180#FC0000FFFFFFFFFF
(1768394474.120945) can0 18FF2021#00000000FCFFFFFF
(1768394474.122153) can0 18FEBF0B#291C7D7D7D7DFFFF
(1768394474.128623) can0 18FF1280#F401FB01FFFFFFFF
(1768394474.130248) can0 18FF2021#00000000FCFFFFFF
(1768394474.130771) can0 18FF2221#06001B00FFFFFFFF
(1768394474.138550) can0 18FF1280#F801F001FFFFFFFF
(1768394474.138801) can0 18FF1381#96002E20FFFFFFFF
(1768394474.139145) can0 18FF1180#FC0000FFFFFFFFFF
(1768394474.139532) can0 18FF102C#FC0000FCFFFFFFFF
(1768394474.140909) can0 18FF2021#00000000FCFFFFFF
(1768394474.148718) can0 18FF1280#EC01F701FFFFFFFF
(1768394474.150144) can0 18FF2221#F6FF0900FFFFFFFF
(1768394474.150175) can0 18FF2021#00000000FCFFFFFF
(1768394474.158651) can0 18FF1280#F801F801FFFFFFFF
(1768394474.158815) can0 18FF1381#96002E20FFFFFFFF
(1768394474.159023) can0 18FF102C#FC0000FCFFFFFFFF
(1768394474.159358) can0 18FF1180#FC0000FFFFFFFFFF
(1768394474.160340) can0 18FF2021#00000000FCFFFFFF
(1768394474.160635) can0 18FF2121#00E40000FFFFFFFF
(1768394474.168303) can0 18FF1280#FA01F101FFFFFFFF
(1768394474.170531) can0 18FF2021#00000000FCFFFFFF
(1768394474.170983) can0 18FF2221#0D000000FFFFFFFF
(1768394474.178297) can0 18FF1381#96002E20FFFFFFFF
(1768394474.178741) can0 18FF1280#F201F601FFFFFFFF
(1768394474.178775) can0 18FF1180#FC0000FFFFFFFFFF
(1768394474.179154) can0 18FF102C#FC0000FCFFFFFFFF
(1768394474.180496) can0 18FF2021#00000000FCFFFFFF
(1768394474.189395) can0 18FF1280#F601F201FFFFFFFF
(1768394474.190240) can0 18FF2021#00000000FCFFFFFF
(1768394474.191001) can0 18FF2221#0500FDFFFFFFFFFF
(1768394474.198090) can0 18FF1180#FC0000FFFFFFFFFF
(1768394474.198157) can0 18FF1381#96002E20FFFFFFFF
(1768394474.198670) can0 18FF1280#F001F301FFFFFFFF
(1768394474.199127) can0 18FF102C#FC0000FCFFFFFFFF
(1768394474.200744) can0 18FF2021#00000000FCFFFFFF
(1768394474.209445) can0 18FF1280#F201F101FFFFFFFF
(1768394474.210268) can0 18FF2021#00000000FCFFFFFF
(1768394474.210518) can0 18FF2221#F9FFF7FFFFFFFFFF
(1768394474.211030) can0 18FF2121#00E40000FFFFFFFF
(1768394474.218172) can0 18FF1381#96002E20FFFFFFFF
(1768394474.218532) can0 18FF14E6#D31FC3FFFFFFFFFF
(1768394474.218663) can0 18FF1280#F101F601FFFFFFFF
(1768394474.218976) can0 18FEF100#FF2A1CFFFFFFFFFF
(1768394474.219266) can0 18FF102C#FC0000FCFFFFFFFF
(1768394474.219506) can0 18FF1180#FC0000FFFFFFFFFF
(1768394474.221302) can0 18FF2021#00000000FCFFFFFF
(1768394474.221619) can0 18FEBF0B#291C7D7D7D7DFFFF
(1768394474.228211) can0 18FF1280#F201EF01FFFFFFFF
(1768394474.230911) can0 18FF2221#F7FFF4FFFFFFFFFF
(1768394474.231275) can0 18FF2021#00000000FCFFFFFF
(1768394474.238368) can0 18FF1280#F501F501FFFFFFFF
(1768394474.238458) can0 18FF1381#96002E20FFFFFFFF
(1768394474.238544) can0 18FF1180#FC0000FFFFFFFFFF
(1768394474.239080) can0 18FF102C#FC0000FCFFFFFFFF
(1768394474.240828) can0 18FF2021#00000000FCFFFFFF
(1768394474.249106) can0 18FF1280#F301EF01FFFFFFFF
(1768394474.250268) can0 18FF2021#00000000FCFFFFFF
(1768394474.250327) can0 18FF2221#FDFFF2FFFFFFFFFF
(1768394474.258116) can0 18FF102C#FC0000FCFFFFFFFF
(1768394474.258187) can0 18FF1280#F901F301FFFFFFFF
(1768394474.258307) can0 18FF1381#96002E20FFFFFFFF
(1768394474.258878) can0 18FF1180#FC0000FFFFFFFFFF
(1768394474.260207) can0 18FF2121#00E40000FFFFFFFF
(1768394474.261098) can0 18FF2021#00000000FCFFFFFF
(1768394474.269411) can0 18FF1280#FA01F501FFFFFFFF
(1768394474.271035) can0 18FF2221#1000FEFFFFFFFFFF
(1768394474.271039) can0 18FF2021#00000000FCFFFFFF
(1768394474.278727) can0 18FF1381#96002E20FFFFFFFF
(1768394474.278977) can0 18FF1180#FC0000FFFFFFFFFF
(1768394474.279155) can0 18FF1280#EE01FA01FFFFFFFF
(1768394474.279418) can0 18FF102C#FC0000FCFFFFFFFF
(1768394474.280733) can0 18FF2021#00000000FCFFFFFF
(1768394474.288954) can0 18FF1280#F501F101FFFFFFFF
(1768394474.290857) can0 18FF2221#0000FFFFFFFFFFFF
(1768394474.291005) can0 18FF2021#00000000FCFFFFFF
(1768394474.298457) can0 18FF102C#FC0000FCFFFFFFFF
(1768394474.298638) can0 18FF1280#F601EF01FFFFFFFF
(1768394474.299087) can0 18FF1381#96002E20FFFFFFFF
(1768394474.299467) can0 18FF1180#FC0000FFFFFFFFFF
(1768394474.300692) can0 18FF2021#00000000FCFFFFFF
(1768394474.308818) can0 18FF1280#FA01F501FFFFFFFF
(1768394474.310548) can0 18FF2121#00E40000FFFFFFFF
(1768394474.310568) can0 18FF2021#00000000FCFFFFFF
(1768394474.311185) can0 18FECA21#00FF00000000FFFF
(1768394474.311353) can0 18FF2221#0E00FCFFFFFFFFFF
(1768394474.318078) can0 18FEF100#FF2A1CFFFFFFFFFF
(1768394474.318533) can0 18FF1381#96002E20FFFFFFFF
(1768394474.318797) can0 18FF14E6#D31FC3FFFFFFFFFF
(1768394474.318913) can0 18FF102C#FC0000FCFFFFFFFF
(1768394474.319486) can0 18FF1180#FC0000FFFFFFFFFF
(1768394474.319502) can0 18FF1280#F601F101FFFFFFFF
(1768394474.319544) can0 18FEF500#FFFFFF8E1FFFFFFF
(1768394474.321003) can0 18FF2021#00000000FCFFFFFF
(1768394474.321657) can0 18FEBF0B#291C7D7D7D7DFFFF
(1768394474.322757) can0 18FEE617#30290C0138267D7E
(1768394474.323957) can0 18FCB7F3#C3FF2C01FFFFFFFF
(1768394474.329312) can0 18FF1280#F101F501FFFFFFFF
(1768394474.330163) can0 18FF2221#0000FEFFFFFFFFFF
(1768394474.331114) can0 18FF2021#00000000FCFFFFFF
(1768394474.338299) can0 18FF102C#FC0000FCFFFFFFFF
(1768394474.338760) can0 18FF1180#FC0000FFFFFFFFFF
(1768394474.338880) can0 18FF1280#ED01F601FFFFFFFF
(1768394474.338904) can0 18FF1381#96002E20FFFFFFFF
(1768394474.341374) can0 18FF2021#00000000FCFFFFFF
(1768394474.349311) can0 18FF1280#F101F101FFFFFFFF
(1768394474.350332) can0 18FF2221#F3FFFAFFFFFFFFFF
(1768394474.350750) can0 18FF2021#00000000FCFFFFFF
(1768394474.358388) can0 18FF1280#EC01F401FFFFFFFF
(1768394474.358567) can0 18FF1381#96002E20FFFFFFFF
(1768394474.359312) can0 18FF1180#FC0000FFFFFFFFFF
(1768394474.359366) can0 18FF102C#FC0000FCFFFFFFFF
(1768394474.360155) can0 18FF2021#00000000FCFFFFFF
(1768394474.361246) can0 18FF2121#00E40000FFFFFFFF
(1768394474.368616) can0 18FF1280#EA01F501FFFFFFFF
(1768394474.370127) can0 18FF2221#E1FF0100FFFFFFFF
(1768394474.370787) can0 18FF2021#00000000FCFFFFFF
(1768394474.378304) can0 18FF1280#F201F501FFFFFFFF
(1768394474.378673) can0 18FF1180#FC0000FFFFFFFFFF
(1768394474.378680) can0 18FF1381#96002E20FFFFFFFF
(1768394474.379277) can0 18FF102C#FC0000FCFFFFFFFF
(1768394474.381343) can0 18FF2021#00000000FCFFFFFF
(1768394474.389290) can0 18FF1280#F501F701FFFFFFFF
(1768394474.391144) can0 18FF2221#F8FF0900FFFFFFFF
(1768394474.391382) can0 18FF2021#00000000FCFFFFFF
(1768394474.398068) can0 18FF1381#96002E20FFFFFFFF
(1768394474.398217) can0 18FF1280#F301F101FFFFFFFF
(1768394474.398897) can0 18FF102C#FC0000FCFFFFFFFF
(1768394474.399461) can0 18FF1180#FC0000FFFFFFFFFF
(1768394474.401289) can0 18FF2021#00000000FCFFFFFF
(1768394474.408325) can0 18FF1280#EF01F201FFFFFFFF
(1768394474.410213) can0 18FF2021#00000000FCFFFFFF
(1768394474.411070) can0 18FF2221#F3FFFAFFFFFFFFFF
(1768394474.411086) can0 18FF2121#00E40000FFFFFFFF
(1768394474.418437) can0 18FF102C#FC0000FCFFFFFFFF
(1768394474.418523) can0 18FF1280#F201F401FFFFFFFF
(1768394474.418736) can0 18FF1381#96002E20FFFFFFFF
(1768394474.418737) can0 18FEF100#FF2A1CFFFFFFFFFF
(1768394474.418897) can0 18FF14E6#D31FC3FFFFFFFFFF
(1768394474.419517) can0 18FF1180#FC0000FFFFFFFFFF
(1768394474.420393) can0 18FF2021#00000000FCFFFFFF
(1768394474.421378) can0 18FEBF0B#291C7D7D7D7DFFFF
(1768394474.428277) can0 18FF1280#F301F801FFFFFFFF
(1768394474.430223) can0 18FF2221#F9FF0800FFFFFFFF
(1768394474.430362) can0 18FF2021#00000000FCFFFFFF
(1768394474.438426) can0 18FF1381#96002E20FFFFFFFF
(1768394474.438832) can0 18FF1180#FC0000FFFFFFFFFF
(1768394474.438949) can0 18FF102C#FC0000FCFFFFFFFF
(1768394474.439569) can0 18FF1280#F201F201FFFFFFFF
(1768394474.440685) can0 18FF2021#00000000FCFFFFFF
(1768394474.448452) can0 18FF1280#F501F301FFFFFFFF
(1768394474.450853) can0 18FF2221#FEFFFDFFFFFFFFFF
(1768394474.451306) can0 18FF2021#00000000FCFFFFFF
(1768394474.458458) can0 18FF1381#96002E20FFFFFFFF
(1768394474.458848) can0 18FF102C#FC0000FCFFFFFFFF
(1768394474.459240) can0 18FF1280#ED01F201FFFFFFFF
(1768394474.459508) can0 18FF1180#FC0000FFFFFFFFFF
(1768394474.460496) can0 18FF2121#00E40000FFFFFFFF
(1768394474.460912) can0 18FF2021#00000000FCFFFFFF
(1768394474.469122) can0 18FF1280#F601F601FFFFFFFF
(1768394474.470450) can0 18FF2021#00000000FCFFFFFF
(1768394474.470812) can0 18FF2221#FDFF0200FFFFFFFF
(1768394474.478071) can0 18FF1381#96002E20FFFFFFFF
(1768394474.478093) can0 18FF102C#FC0000FCFFFFFFFF
(1768394474.478095) can0 18FF1180#FC0000FFFFFFFFFF
(1768394474.478653) can0 18FF1280#EF01F601FFFFFFFF
(1768394474.480798) can0 18FF2021#00000000FCFFFFFF
(1768394474.489040) can0 18FF1280#F001F101FFFFFFFF
(1768394474.490585) can0 18FF2021#00000000FCFFFFFF
(1768394474.491218) can0 18FF2221#F2FFFBFFFFFFFFFF
(1768394474.498231) can0 18FF1381#96002E20FFFFFFFF
(1768394474.499234) can0 18FF102C#FC0000FCFFFFFFFF
(1768394474.499354) can0 18FF1280#F401FB01FFFFFFFF
(1768394474.499573) can0 18FF1180#FC0000FFFFFFFFFF
(1768394474.501009) can0 18FF2021#00000000FCFFFFFF
(1768394474.509165) can0 18FF1280#F801F101FFFFFFFF
(1768394474.510272) can0 18FF2121#00E40000FFFFFFFF
(1768394474.510357) can0 18FF2021#00000000FCFFFFFF
(1768394474.511291) can0 18FF2221#05000000FFFFFFFF
(1768394474.518078) can0 18FF1280#F001F801FFFFFFFF
(1768394474.518311) can0 18FEF100#FF2A1CFFFFFFFFFF
(1768394474.518424) can0 18FF14E6#D31FC3FFFFFFFFFF
(1768394474.518565) can0 18FF1180#FC0000FFFFFFFFFF
(1768394474.519150) can0 18FF102C#FC0000FCFFFFFFFF
(1768394474.519546) can0 18FF1381#96002E20FFFFFFFF
(1768394474.521160) can0 18FF2021#00000000FCFFFFFF
(1768394474.522049) can0 18FEBF0B#291C7D7D7D7DFFFF
(1768394474.528352) can0 18FF1280#F101F201FFFFFFFF
(1768394474.530532) can0 18FF2221#F7FF0000FFFFFFFF
(1768394474.530992) can0 18FF2021#00000000FCFFFFFF
(1768394474.538090) can0 18FF1180#FC0000FFFFFFFFFF
(1768394474.538161) can0 18FF102C#FC0000FCFFFFFFFF
(1768394474.538206) can0 18FF1280#F201F501FFFFFFFF
(1768394474.539440) can0 18FF1381#96002E20FFFFFFFF
(1768394474.540421) can0 18FF2021#00000000FCFFFFFF
(1768394474.548634) can0 18FF1280#F501FC01FFFFFFFF
(1768394474.550259) can0 18FF2021#00000000FCFFFFFF
(1768394474.550898) can0 18FF2221#FEFF1500FFFFFFFF
(1768394474.558823) can0 18FF1180#FC0000FFFFFFFFFF
(1768394474.558952) can0 18FF1280#F701F601FFFFFFFF
(1768394474.559294) can0 18FF102C#FC0000FCFFFFFFFF
(1768394474.559423) can0 18FF1381#96002E20FFFFFFFF
(1768394474.560201) can0 18FF2121#00E40000FFFFFFFF
(1768394474.560781) can0 18FF2021#00000000FCFFFFFF
(1768394474.569211) can0 18FF1280#EF01F601FFFFFFFF
(1768394474.570409) can0 18FF2221#F8FF0D00FFFFFFFF
(1768394474.570768) can0 18FF2021#00000000FCFFFFFF
(1768394474.578177) can0 18FF1180#FC0000FFFFFFFFFF
(1768394474.578235) can0 18FF102C#FC0000FCFFFFFFFF
(1768394474.578973) can0 18FF1280#F001FE01FFFFFFFF
(1768394474.578982) can0 18FF1381#96002E20FFFFFFFF
(1768394474.580461) can0 18FF2021#00000000FCFFFFFF
(1768394474.589213) can0 18FF1280#F101FB01FFFFFFFF
(1768394474.590946) can0 18FF2221#F4FF2100FFFFFFFF
(1768394474.591030) can0 18FF2021#00000000FCFFFFFF
(1768394474.598148) can0 18FF1381#96002E20FFFFFFFF
(1768394474.598160) can0 18FF1180#FC0000FFFFFFFFFF
(1768394474.598173) can0 18FF102C#FC0000FCFFFFFFFF
(1768394474.598499) can0 18FF1280#F101F301FFFFFFFF
(1768394474.601361) can0 18FF2021#00000000FCFFFFFF
(1768394474.608909) can0 18FF1280#F801F501FFFFFFFF
(1768394474.610196) can0 18FF2021#00000000FCFFFFFF
(1768394474.610817) can0 18FF2121#00E40000FFFFFFFF
(1768394474.611284) can0 18FF2221#02000A00FFFFFFFF
(1768394474.618149) can0 18FF1280#F101F401FFFFFFFF
(1768394474.618154) can0 18FF102C#FC0000FCFFFFFFFF
(1768394474.618258) can0 18FEF100#FF2A1CFFFFFFFFFF
(1768394474.618512) can0 18FF1381#96002E20FFFFFFFF
(1768394474.618646) can0 18FF14E6#D31FC3FFFFFFFFFF
(1768394474.618689) can0 18FF1180#FC0000FFFFFFFFFF
(1768394474.620466) can0 18FF2021#00000000FCFFFFFF
(1768394474.622228) can0 18FEBF0B#291C7D7D7D7DFFFF
(1768394474.628535) can0 18FF1280#F801F201FFFFFFFF
(1768394474.630370) can0 18FF2221#0600FDFFFFFFFFFF
(1768394474.631231) can0 18FF2021#00000000FCFFFFFF
(1768394474.638299) can0 18FF1381#96002E20FFFFFFFF
(1768394474.639260) can0 18FF102C#FC0000FCFFFFFFFF
(1768394474.639406) can0 18FF1180#FC0000FFFFFFFFFF
(1768394474.639474) can0 18FF1280#F601F101FFFFFFFF
(1768394474.641309) can0 18FF2021#00000000FCFFFFFF
(1768394474.648133) can0 18FF1280#F101EF01FFFFFFFF
(1768394474.650620) can0 18FF2021#00000000FCFFFFFF
(1768394474.651052) can0 18FF2221#FDFFEFFFFFFFFFFF
(1768394474.658204) can0 18FF102C#FC0000FCFFFFFFFF
(1768394474.658886) can0 18FF1180#FC0000FFFFFFFFFF
(1768394474.658890) can0 18FF1381#96002E20FFFFFFFF
(1768394474.659075) can0 18FF1280#F401F601FFFFFFFF
(1768394474.660218) can0 18FF2121#00E40000FFFFFFFF
(1768394474.661144) can0 18FF2021#00000000FCFFFFFF
(1768394474.668978) can0 18FF1280#F301F601FFFFFFFF
(1768394474.670582) can0 18FF2221#FDFF0300FFFFFFFF
(1768394474.671323) can0 18FF2021#00000000FCFFFFFF
(1768394474.678250) can0 18FF1280#F401F001FFFFFFFF
(1768394474.678540) can0 18FF1381#96002E20FFFFFFFF
(1768394474.678686) can0 18FF1180#FC0000FFFFFFFFFF
(1768394474.678799) can0 18FF102C#FC0000FCFFFFFFFF
(1768394474.680615) can0 18FF2021#00000000FCFFFFFF
(1768394474.688070) can0 18FF1280#F701F301FFFFFFFF
(1768394474.690156) can0 18FF2021#00000000FCFFFFFF
(1768394474.690774) can0 18FF2221#0500F9FFFFFFFFFF
(1768394474.698050) can0 18FF1180#FC0000FFFFFFFFFF
(1768394474.698362) can0 18FF1381#96002E20FFFFFFFF
(1768394474.699281) can0 18FF102C#FC0000FCFFFFFFFF
(1768394474.699598) can0 18FF1280#EF01F601FFFFFFFF
(1768394474.700600) can0 18FF2021#00000000FCFFFFFF
(1768394474.708925) can0 18FF1280#F701F301FFFFFFFF
(1768394474.710853) can0 18FF2221#0200FEFFFFFFFFFF
(1768394474.710862) can0 18FF2021#00000000FCFFFFFF
(1768394474.710878) can0 18FF2121#00E40000FFFFFFFF
(1768394474.718506) can0 18FEF100#FF2A1CFFFFFFFFFF
(1768394474.718590) can0 18FF1280#F601F601FFFFFFFF
(1768394474.718886) can0 18FF1180#FC0000FFFFFFFFFF
(1768394474.718904) can0 18FF14E6#D31FC3FFFFFFFFFF
(1768394474.719259) can0 18FF1381#96002E20FFFFFFFF
(1768394474.719420) can0 18FF102C#FC0000FCFFFFFFFF
(1768394474.721209) can0 18FF2021#00000000FCFFFFFF
(1768394474.721973) can0 18FEBF0B#291C7D7D7D7DFFFF
(1768394474.728407) can0 18FF1280#F201FB01FFFFFFFF
(1768394474.730820) can0 18FF2021#00000000FCFFFFFF
(1768394474.730859) can0 18FF2221#FFFF1400FFFFFFFF
(1768394474.738081) can0 18FF102C#FC0000FCFFFFFFFF
(1768394474.738471) can0 18FF1180#FC0000FFFFFFFFFF
(1768394474.739032) can0 18FF1280#F401F201FFFFFFFF
(1768394474.739426) can0 18FF1381#96002E20FFFFFFFF
(1768394474.740216) can0 18FF2021#00000000FCFFFFFF
(1768394474.748426) can0 18FF1280#F101F001FFFFFFFF
(1768394474.750103) can0 18FF2221#FAFFF8FFFFFFFFFF
(1768394474.750236) can0 18FF2021#00000000FCFFFFFF
(1768394474.758953) can0 18FF1180#FC0000FFFFFFFFFF
(1768394474.759175) can0 18FF102C#FC0000FCFFFFFFFF
(1768394474.759300) can0 18FF1381#96002E20FFFFFFFF
(1768394474.759595) can0 18FF1280#FA01F301FFFFFFFF
(1768394474.760419) can0 18FF2021#00000000FCFFFFFF
(1768394474.760609) can0 18FF2121#00E40000FFFFFFFF
(1768394474.768429) can0 18FF1280#F001FB01FFFFFFFF
(1768394474.770336) can0 18FF2021#00000000FCFFFFFF
(1768394474.770403) can0 18FF2221#FCFF0E00FFFFFFFF
(1768394474.778083) can0 18FF1381#96002E20FFFFFFFF
(1768394474.779264) can0 18FF1280#F101F501FFFFFFFF
(1768394474.779370) can0 18FF1180#FC0000FFFFFFFFFF
(1768394474.779520) can0 18FF102C#FC0000FCFFFFFFFF
(1768394474.780570) can0 18FF2021#00000000FCFFFFFF
(1768394474.788172) can0 18FF1280#F601F001FFFFFFFF
(1768394474.791263) can0 18FF2021#00000000FCFFFFFF
(1768394474.791313) can0 18FF2221#0000FBFFFFFFFFFF
(1768394474.798339) can0 18FF1381#96002E20FFFFFFFF
(1768394474.798720) can0 18FF1180#FC0000FFFFFFFFFF
(1768394474.798832) can0 18FF102C#FC0000FCFFFFFFFF
(1768394474.799148) can0 18FF1280#F201FB01FFFFFFFF
(1768394474.800107) can0 18FF2021#00000000FCFFFFFF
(1768394474.808517) can0 18FF1280#F801F601FFFFFFFF
(1768394474.810391) can0 18FF2121#00E40000FFFFFFFF
(1768394474.810488) can0 18FF2021#00000000FCFFFFFF
(1768394474.810632) can0 18FF2221#06000C00FFFFFFFF
(1768394474.818083) can0 18FF102C#FC0000FCFFFFFFFF
(1768394474.818124) can0 18FF1280#F101F901FFFFFFFF
(1768394474.818134) can0 18FF1381#96002E20FFFFFFFF
(1768394474.818225) can0 18FEF100#FF2A1CFFFFFFFFFF
(1768394474.819101) can0 18FF14E6#D31FC3FFFFFFFFFF
(1768394474.819132) can0 18FF1180#FC0000FFFFFFFFFF
(1768394474.820195) can0 18FF2021#00000000FCFFFFFF
(1768394474.821181) can0 18FEBF0B#291C7D7D7D7DFFFF
(1768394474.828480) can0 18FF1280#F501F901FFFFFFFF
(1768394474.830137) can0 18FF2221#01001600FFFFFFFF
(1768394474.830820) can0 18FF2021#00000000FCFFFFFF
(1768394474.838159) can0 18FF1381#96002E20FFFFFFFF
(1768394474.838533) can0 18FF1280#F501F101FFFFFFFF
(1768394474.838574) can0 18FF102C#FC0000FCFFFFFFFF
(1768394474.839469) can0 18FF1180#FC0000FFFFFFFFFF
(1768394474.841285) can0 18FF2021#00000000FCFFFFFF
(1768394474.849182) can0 18FF1280#F501EE01FFFFFFFF
(1768394474.850410) can0 18FF2021#00000000FCFFFFFF
(1768394474.850565) can0 18FF2221#0300F3FFFFFFFFFF
(1768394474.858177) can0 18FF102C#FC0000FCFFFFFFFF
(1768394474.858207) can0 18FF1180#FC0000FFFFFFFFFF
(1768394474.858286) can0 18FF1381#96002E20FFFFFFFF
(1768394474.859398) can0 18FF1280#F201F801FFFFFFFF
(1768394474.860234) can0 18FF2021#00000000FCFFFFFF
(1768394474.860333) can0 18FF2121#00E40000FFFFFFFF
(1768394474.868543) can0 18FF1280#F501F001FFFFFFFF
(1768394474.870517) can0 18FF2021#00000000FCFFFFFF
(1768394474.870743) can0 18FF2221#0100F8FFFFFFFFFF
(1768394474.878483) can0 18FF1280#F601F801FFFFFFFF
(1768394474.878605) can0 18FF1180#FC0000FFFFFFFFFF
(1768394474.878999) can0 18FF1381#96002E20FFFFFFFF
(1768394474.879382) can0 18FF102C#FC0000FCFFFFFFFF
(1768394474.880307) can0 18FF2021#00000000FCFFFFFF
(1768394474.888715) can0 18FF1280#F301F201FFFFFFFF
(1768394474.890103) can0 18FF2021#00000000FCFFFFFF
(1768394474.890843) can0 18FF2221#0000FEFFFFFFFFFF
(1768394474.898602) can0 18FF1180#FC0000FFFFFFFFFF
(1768394474.898905) can0 18FF1280#F501F401FFFFFFFF
(1768394474.899071) can0 18FF102C#FC0000FCFFFFFFFF
(1768394474.899380) can0 18FF1381#96002E20FFFFFFFF
(1768394474.900893) can0 18FF2021#00000000FCFFFFFF
(1768394474.908322) can0 18FF1280#F201F001FFFFFFFF
(1768394474.910367) can0 18FF2221#FDFFF5FFFFFFFFFF
(1768394474.910865) can0 18FF2021#00000000FCFFFFFF
(1768394474.911258) can0 18FF2121#00E40000FFFFFFFF
(1768394474.918552) can0 18FF102C#FC0000FCFFFFFFFF
(1768394474.918877) can0 18FF1180#FC0000FFFFFFFFFF
(1768394474.918880) can0 18FF1381#96002E20FFFFFFFF
(1768394474.918957) can0 18FF1280#EE01F101FFFFFFFF
(1768394474.918976) can0 18FF14E6#D31FC3FFFFFFFFFF
(1768394474.919538) can0 18FEF100#FF2A1CFFFFFFFFFF
(1768394474.920149) can0 18FF2021#00000000FCFFFFFF
(1768394474.922445) can0 18FEBF0B#291C7D7D7D7DFFFF
(1768394474.929102) can0 18FF1280#F001F201FFFFFFFF
(1768394474.930144) can0 18FF2221#F1FFF5FFFFFFFFFF
(1768394474.930222) can0 18FF2021#00000000FCFFFFFF
(1768394474.938112) can0 18FF1180#FC0000FFFFFFFFFF
(1768394474.938218) can0 18FF1280#F101F201FFFFFFFF
(1768394474.938769) can0 18FF1381#96002E20FFFFFFFF
(1768394474.938986) can0 18FF102C#FC0000FCFFFFFFFF
(1768394474.940651) can0 18FF2021#00000000FCFFFFFF
(1768394474.948645) can0 18FF1280#EC01F601FFFFFFFF
(1768394474.950537) can0 18FF2221#E9FF0000FFFFFFFF
(1768394474.951062) can0 18FF2021#00000000FCFFFFFF
(1768394474.958103) can0 18FF1180#FC0000FFFFFFFFFF
(1768394474.958765) can0 18FF102C#FC0000FCFFFFFFFF
(1768394474.959169) can0 18FF1381#96002E20FFFFFFFF
(1768394474.959251) can0 18FF1280#F401F201FFFFFFFF
(1768394474.960139) can0 18FF2121#00E40000FFFFFFFF
(1768394474.961059) can0 18FF2021#00000000FCFFFFFF
(1768394474.969600) can0 18FF1280#F501F401FFFFFFFF
(1768394474.970963) can0 18FF2221#FCFFFDFFFFFFFFFF
(1768394474.971277) can0 18FF2021#00000000FCFFFFFF
(1768394474.978167) can0 18FF1180#FC0000FFFFFFFFFF
(1768394474.978646) can0 18FF1280#F801F701FFFFFFFF
(1768394474.978725) can0 18FF1381#96002E20FFFFFFFF
(1768394474.979293) can0 18FF102C#FC0000FCFFFFFFFF
(1768394474.981130) can0 18FF2021#00000000FCFFFFFF
(1768394474.989294) can0 18FF1280#EF01F701FFFFFFFF
(1768394474.990783) can0 18FF2221#F9FF0B00FFFFFFFF
(1768394474.990810) can0 18FF2021#00000000FCFFFFFF
(1768394474.998595) can0 18FF1381#96002E20FFFFFFFF
(1768394474.998806) can0 18FF1180#FC0000FFFFFFFFFF
(1768394474.998970) can0 18FF1280#F201F301FFFFFFFF
(1768394474.999264) can0 18FF102C#FC0000FCFFFFFFFF
(1768394475.001278) can0 18FF2021#00000000FCFFFFFF
(1768394475.008489) can0 18FF1280#F201EF01FFFFFFFF
(1768394475.010525) can0 18FF2121#00E40000FFFFFFFF
(1768394475.010718) can0 18FF2221#F8FFF5FFFFFFFFFF
(1768394475.010793) can0 18FF2021#00000000FCFFFFFF
(1768394475.018102) can0 18FEF100#FF2A1CFFFFFFFFFF
(1768394475.018141) can0 18FF102C#FC0000FCFFFFFFFF
(1768394475.018457) can0 18FF1180#FC0000FFFFFFFFFF
(1768394475.018601) can0 18FF14E6#D31FC3FFFFFFFFFF
(1768394475.018667) can0 18FF1381#96002E20FFFFFFFF
(1768394475.019337) can0 18FF1280#EE01EF01FFFFFFFF
(1768394475.021302) can0 18FF2021#00000000FCFFFFFF
(1768394475.022749) can0 18FEBF0B#291C7D7D7D7DFFFF
(1768394475.029080) can0 18FF1280#F501F601FFFFFFFF
(1768394475.030452) can0 18FF2021#00000000FCFFFFFF
(1768394475.031291) can0 18FF2221#FAFFFCFFFFFFFFFF
(1768394475.038278) can0 18FF102C#FC0000FCFFFFFFFF
(1768394475.039358) can0 18FF1180#FC0000FFFFFFFFFF
(1768394475.039493) can0 18FF1381#96002E20FFFFFFFF
(1768394475.039528) can0 18FF1280#ED01EE01FFFFFFFF
(1768394475.040362) can0 18FF2021#00000000FCFFFFFF
(1768394475.048199) can0 18FF1280#F501F601FFFFFFFF
(1768394475.050452) can0 18FF2221#FAFFFCFFFFFFFFFF
(1768394475.050694) can0 18FF2021#00000000FCFFFFFF
(1768394475.058252) can0 18FF1180#FC0000FFFFFFFFFF
(1768394475.058270) can0 18FF1381#96002E20FFFFFFFF
(1768394475.058396) can0 18FF102C#FC0000FCFFFFFFFF
(1768394475.058543) can0 18FF1280#F901EF01FFFFFFFF
(1768394475.060153) can0 18FF2021#00000000FCFFFFFF
(1768394475.060345) can0 18FF2121#00E40000FFFFFFFF
(1768394475.068840) can0 18FF1280#FA01F701FFFFFFFF
(1768394475.070190) can0 18FF2021#00000000FCFFFFFF
(1768394475.070786) can0 18FF2221#0F000000FFFFFFFF
(1768394475.078073) can0 18FF1180#FC0000FFFFFFFFFF
(1768394475.078296) can0 18FF1381#96002E20FFFFFFFF
(1768394475.079018) can0 18FF102C#FC0000FCFFFFFFFF
(1768394475.079073) can0 18FF1280#F301EF01FFFFFFFF
(1768394475.080613) can0 18FF2021#00000000FCFFFFFF
(1768394475.088088) can0 18FF1280#F101FA01FFFFFFFF
(1768394475.090470) can0 18FF2221#FDFF0900FFFFFFFF
(1768394475.091102) can0 18FF2021#00000000FCFFFFFF
(1768394475.098622) can0 18FF102C#FC0000FCFFFFFFFF
(1768394475.098850) can0 18FF1280#F401F801FFFFFFFF
(1768394475.098965) can0 18FF1180#FC0000FFFFFFFFFF
(1768394475.099276) can0 18FF1381#96002E20FFFFFFFF
(1768394475.100103) can0 18FF2021#00000000FCFFFFFF
(1768394475.108860) can0 18FF1280#FA01F801FFFFFFFF
(1768394475.110140) can0 18FF2121#00E40000FFFFFFFF
(1768394475.110291) can0 18FF2021#00000000FCFFFFFF
(1768394475.110362) can0 18FF2221#0B001100FFFFFFFF
(1768394475.118461) can0 18FF1381#96002E20FFFFFFFF
(1768394475.118947) can0 18FF1180#FC0000FFFFFFFFFF
(1768394475.119277) can0 18FF1280#F901FD01FFFFFFFF
(1768394475.119281) can0 18FF102C#FC0000FCFFFFFFFF
(1768394475.119290) can0 18FEF100#FF2A1CFFFFFFFFFF
(1768394475.119461) can0 18FF14E6#D31FC3FFFFFFFFFF
(1768394475.121374) can0 18FF2021#00000000FCFFFFFF
(1768394475.122064) can0 18FEBF0B#291C7D7D7D7DFFFF
(1768394475.128826) can0 18FF1280#F201F501FFFFFFFF
(1768394475.130834) can0 18FF2221#04001200FFFFFFFF
(1768394475.131028) can0 18FF2021#00000000FCFFFFFF
(1768394475.138753) can0 18FF1381#96002E20FFFFFFFF
(1768394475.139492) can0 18FF102C#FC0000FCFFFFFFFF
(1768394475.139509) can0 18FF1280#F501F701FFFFFFFF
(1768394475.139554) can0 18FF1180#FC0000FFFFFFFFFF
(1768394475.140818) can0 18FF2021#00000000FCFFFFFF
(1768394475.149357) can0 18FF1280#F901F501FFFFFFFF
(1768394475.151063) can0 18FF2021#00000000FCFFFFFF
(1768394475.151214) can0 18FF2221#0C000B00FFFFFFFF
(1768394475.158065) can0 18FF1280#F001FB01FFFFFFFF
(1768394475.158360) can0 18FF102C#FC0000FCFFFFFFFF
(1768394475.158499) can0 18FF1381#96002E20FFFFFFFF
(1768394475.158694) can0 18FF1180#FC0000FFFFFFFFFF
(1768394475.160322) can0 18FF2021#00000000FCFFFFFF
(1768394475.160393) can0 18FF2121#00E40000FFFFFFFF
(1768394475.168939) can0 18FF1280#F801F301FFFFFFFF
(1768394475.170491) can0 18FF2021#00000000FCFFFFFF
(1768394475.170822) can0 18FF2221#07000900FFFFFFFF
(1768394475.178466) can0 18FF102C#FC0000FCFFFFFFFF
(1768394475.178957) can0 18FF1280#F101F301FFFFFFFF
(1768394475.178998) can0 18FF1180#FC0000FFFFFFFFFF
(1768394475.179369) can0 18FF1381#96002E20FFFFFFFF
(1768394475.180887) can0 18FF2021#00000000FCFFFFFF
(1768394475.188823) can0 18FF1280#F101F901FFFFFFFF
(1768394475.190613) can0 18FF2221#F9FF0D00FFFFFFFF
(1768394475.191367) can0 18FF2021#00000000FCFFFFFF
(1768394475.198185) can0 18FF1381#96002E20FFFFFFFF
(1768394475.198960) can0 18FF1180#FC0000FFFFFFFFFF
(1768394475.199519) can0 18FF1280#F201F401FFFFFFFF
(1768394475.199587) can0 18FF102C#FC0000FCFFFFFFFF
(1768394475.201302) can0 18FF2021#00000000FCFFFFFF
(1768394475.209473) can0 18FF1280#EE01F901FFFFFFFF
(1768394475.210129) can0 18FF2121#00E40000FFFFFFFF
(1768394475.210138) can0 18FF2021#00000000FCFFFFFF
(1768394475.210646) can0 18FF2221#F0FF1000FFFFFFFF
(1768394475.218243) can0 18FF1381#96002E20FFFFFFFF
(1768394475.218277) can0 18FF1180#FC0000FFFFFFFFFF
(1768394475.218390) can0 18FEF100#FF2A1CFFFFFFFFFF
(1768394475.218491) can0 18FF102C#FC0000FCFFFFFFFF
(1768394475.219211) can0 18FF14E6#D31FC3FFFFFFFFFF
(1768394475.219445) can0 18FF1280#F601F801FFFFFFFF
(1768394475.220690) can0 18FF2021#00000000FCFFFFFF
(1768394475.223516) can0 18FEBF0B#291C7D7D7D7DFFFF
(1768394475.229208) can0 18FF1280#F101F001FFFFFFFF
(1768394475.230323) can0 18FF2221#F8FFFFFFFFFFFFFF
(1768394475.230921) can0 18FF2021#00000000FCFFFFFF
(1768394475.239010) can0 18FF1280#F901F701FFFFFFFF
(1768394475.239121) can0 18FF102C#FC0000FCFFFFFFFF
(1768394475.239305) can0 18FF1381#96002E20FFFFFFFF
(1768394475.239315) can0 18FF1180#FC0000FFFFFFFFFF
(1768394475.240968) can0 18FF2021#00000000FCFFFFFF
(1768394475.249430) can0 18FF1280#F801EE01FFFFFFFF
(1768394475.250843) can0 18FF2221#0B00F4FFFFFFFFFF
(1768394475.251149) can0 18FF2021#00000000FCFFFFFF
(1768394475.258101) can0 18FF102C#FC0000FCFFFFFFFF
(1768394475.258209) can0 18FF1180#FC0000FFFFFFFFFF
(1768394475.258656) can0 18FF1381#96002E20FFFFFFFF
(1768394475.258985) can0 18FF1280#F501F301FFFFFFFF
(1768394475.260337) can0 18FF2121#00E40000FFFFFFFF
(1768394475.261037) can0 18FF2021#00000000FCFFFFFF
(1768394475.268860) can0 18FF1280#F801F401FFFFFFFF
(1768394475.270370) can0 18FF2221#0C00FCFFFFFFFFFF
(1768394475.270595) can0 18FF2021#00000000FCFFFFFF
(1768394475.278181) can0 18FF102C#FC0000FCFFFFFFFF
(1768394475.278894) can0 18FF1381#96002E20FFFFFFFF
(1768394475.278981) can0 18FF1180#FC0000FFFFFFFFFF
(1768394475.279414) can0 18FF1280#F601F401FFFFFFFF
(1768394475.280207) can0 18FF2021#00000000FCFFFFFF
(1768394475.289599) can0 18FF1280#F401F801FFFFFFFF
(1768394475.290208) can0 18FF2221#05000900FFFFFFFF
(1768394475.291218) can0 18FF2021#00000000FCFFFFFF
(1768394475.298724) can0 18FF1180#FC0000FFFFFFFFFF
(1768394475.299006) can0 18FF1381#96002E20FFFFFFFF
(1768394475.299078) can0 18FF1280#F901F201FFFFFFFF
(1768394475.299100) can0 18FF102C#FC0000FCFFFFFFFF
(1768394475.301302) can0 18FF2021#00000000FCFFFFFF
(1768394475.308838) can0 18FF1280#F301FE01FFFFFFFF
(1768394475.310401) can0 18FF2121#00E40000FFFFFFFF
(1768394475.310524) can0 18FECA21#00FF00000000FFFF
(1768394475.311118) can0 18FF2221#04001900FFFFFFFF
(1768394475.311252) can0 18FF2021#00000000FCFFFFFF
(1768394475.318179) can0 18FF102C#FC0000FCFFFFFFFF
(1768394475.318228) can0 18FF14E6#D31FC3FFFFFFFFFF
(1768394475.319363) can0 18FF1180#FC0000FFFFFFFFFF
(1768394475.319520) can0 18FF1280#F401EE01FFFFFFFF
(1768394475.319531) can0 18FEF100#FFC019FFFFFFFFFF
(1768394475.319542) can0 18FEF500#FFFFFF8E1FFFFFFF
(1768394475.319577) can0 18FF1381#96002E20FFFFFFFF
(1768394475.320935) can0 18FF2021#00000000FCFFFFFF
(1768394475.322026) can0 18FEBF0B#BF197D7D7D7DFFFF
(1768394475.323126) can0 18FEE617#30290C0138267D7E
(1768394475.324326) can0 18FCB7F3#C3FF2C01FFFFFFFF
(1768394475.328648) can0 18FF1280#EC01F501FFFFFFFF
(1768394475.330819) can0 18FF2021#00000000FCFFFFFF
(1768394475.330880) can0 18FF2221#F1FF0100FFFFFFFF
(1768394475.338479) can0 18FF1381#96002E20FFFFFFFF
(1768394475.338806) can0 18FF1280#F601F401FFFFFFFF
(1768394475.338813) can0 18FF1180#FC0000FFFFFFFFFF
(1768394475.339313) can0 18FF102C#FC0000FCFFFFFFFF
(1768394475.340285) can0 18FF2021#00000000FCFFFFFF
(1768394475.349576) can0 18FF1280#F801EC01FFFFFFFF
(1768394475.350107) can0 18FF2021#00000000FCFFFFFF
(1768394475.350719) can0 18FF2221#0600ECFFFFFFFFFF
(1768394475.358088) can0 18FF102C#FC0000FCFFFFFFFF
(1768394475.358437) can0 18FF1381#96002E20FFFFFFFF
(1768394475.358825) can0 18FF1280#FE01F101FFFFFFFF
(1768394475.359226) can0 18FF1180#FC0000FFFFFFFFFF
(1768394475.360627) can0 18FF2121#00E40000FFFFFFFF
(1768394475.360855) can0 18FF2021#00000000FCFFFFFF
(1768394475.369494) can0 18FF1280#F201F001FFFFFFFF
(1768394475.370332) can0 18FF2021#00000000FCFFFFFF
(1768394475.371246) can0 18FF2221#0800EDFFFFFFFFFF
(1768394475.378852) can0 18FF1381#96002E20FFFFFFFF
(1768394475.378906) can0 18FF102C#FC0000FCFFFFFFFF
(1768394475.379173) can0 18FF1280#F701F601FFFFFFFF
(1768394475.379220) can0 18FF1180#FC0000FFFFFFFFFF
(1768394475.380489) can0 18FF2021#00000000FCFFFFFF
(1768394475.388474) can0 18FF1280#F201F101FFFFFFFF
(1768394475.390230) can0 18FF2221#0100F6FFFFFFFFFF
(1768394475.390307) can0 18FF2021#00000000FCFFFFFF
(1768394475.398543) can0 18FF1180#FC0000FFFFFFFFFF
(1768394475.399326) can0 18FF1381#96002E20FFFFFFFF
(1768394475.399405) can0 18FF1280#F001FC01FFFFFFFF
(1768394475.399464) can0 18FF102C#FC0000FCFFFFFFFF
(1768394475.400723) can0 18FF2021#00000000FCFFFFFF
(1768394475.409218) can0 18FF1280#F301F901FFFFFFFF
(1768394475.410217) can0 18FF2021#00000000FCFFFFFF
(1768394475.410479) can0 18FF2121#00E40000FFFFFFFF
(1768394475.410572) can0 18FF2221#FAFF1400FFFFFFFF
(1768394475.418278) can0 18FF102C#FC0000FCFFFFFFFF
(1768394475.418813) can0 18FEF100#FFC019FFFFFFFFFF
(1768394475.418854) can0 18FF14E6#D31FC3FFFFFFFFFF
(1768394475.419194) can0 18FF1381#96002E20FFFFFFFF
(1768394475.419316) can0 18FF1280#F601EE01FFFFFFFF
(1768394475.419399) can0 18FF1180#FC0000FFFFFFFFFF
(1768394475.421365) can0 18FF2021#00000000FCFFFFFF
(1768394475.422691) can0 18FEBF0B#BF197D7D7D7DFFFF
(1768394475.429229) can0 18FF1280#EE01F701FFFFFFFF
(1768394475.431265) can0 18FF2221#F5FF0500FFFFFFFF
(1768394475.431311) can0 18FF2021#00000000FCFFFFFF
(1768394475.438255) can0 18FF1381#96002E20FFFFFFFF
(1768394475.438644) can0 18FF102C#FC0000FCFFFFFFFF
(1768394475.438691) can0 18FF1280#F001EF01FFFFFFFF
(1768394475.439349) can0 18FF1180#FC0000FFFFFFFFFF
(1768394475.440358) can0 18FF2021#00000000FCFFFFFF
(1768394475.448531) can0 18FF1280#F401F001FFFFFFFF
(1768394475.450181) can0 18FF2221#F9FFF1FFFFFFFFFF
(1768394475.450675) can0 18FF2021#00000000FCFFFFFF
(1768394475.458111) can0 18FF1280#F501FB01FFFFFFFF
(1768394475.458630) can0 18FF1381#96002E20FFFFFFFF
(1768394475.458694) can0 18FF102C#FC0000FCFFFFFFFF
(1768394475.459594) can0 18FF1180#FC0000FFFFFFFFFF
(1768394475.460839) can0 18FF2021#00000000FCFFFFFF
(1768394475.461305) can0 18FF2121#00E40000FFFFFFFF
(1768394475.469045) can0 18FF1280#F601ED01FFFFFFFF
(1768394475.470396) can0 18FF2021#00000000FCFFFFFF
(1768394475.471288) can0 18FF2221#0300F4FFFFFFFFFF
(1768394475.478211) can0 18FF1280#F301F601FFFFFFFF
(1768394475.478402) can0 18FF102C#FC0000FCFFFFFFFF
(1768394475.478481) can0 18FF1180#FC0000FFFFFFFFFF
(1768394475.479293) can0 18FF1381#96002E20FFFFFFFF
(1768394475.480949) can0 18FF2021#00000000FCFFFFFF
(1768394475.489316) can0 18FF1280#F601F101FFFFFFFF
(1768394475.490484) can0 18FF2021#00000000FCFFFFFF
(1768394475.490965) can0 18FF2221#0400F8FFFFFFFFFF
(1768394475.498416) can0 18FF1381#96002E20FFFFFFFF
(1768394475.498637) can0 18FF1180#FC0000FFFFFFFFFF
(1768394475.498814) can0 18FF1280#F401EE01FFFFFFFF
(1768394475.499458) can0 18FF102C#FC0000FCFFFFFFFF
(1768394475.500829) can0 18FF2021#00000000FCFFFFFF
(1768394475.508799) can0 18FF1280#FA01F801FFFFFFFF
(1768394475.510236) can0 18FF2221#0D000000FFFFFFFF
(1768394475.510283) can0 18FF2021#00000000FCFFFFFF
(1768394475.510939) can0 18FF2121#00E40000FFFFFFFF
(1768394475.518190) can0 18FF1180#FC0000FFFFFFFFFF
(1768394475.518231) can0 18FF14E6#D31FC3FFFFFFFFFF
(1768394475.518327) can0 18FF1280#EF01F801FFFFFFFF
(1768394475.518502) can0 18FEF100#FFC019FFFFFFFFFF
(1768394475.518564) can0 18FF102C#FC0000FCFFFFFFFF
(1768394475.519072) can0 18FF1381#96002E20FFFFFFFF
(1768394475.520150) can0 18FF2021#00000000FCFFFFFF
(1768394475.523160) can0 18FEBF0B#BF197D7D7D7DFFFF
(1768394475.529343) can0 18FF1280#F501F801FFFFFFFF
(1768394475.530373) can0 18FF2021#00000000FCFFFFFF
(1768394475.530519) can0 18FF2221#00000F00FFFFFFFF
(1768394475.538069) can0 18FF1180#FC0000FFFFFFFFFF
(1768394475.538896) can0 18FF1280#F601F101FFFFFFFF
(1768394475.539317) can0 18FF1381#96002E20FFFFFFFF
(1768394475.539577) can0 18FF102C#FC0000FCFFFFFFFF
(1768394475.541269) can0 18FF2021#00000000FCFFFFFF
(1768394475.548100) can0 18FF1280#FA01F801FFFFFFFF
(1768394475.550178) can0 18FF2221#0E000A00FFFFFFFF
(1768394475.550419) can0 18FF2021#00000000FCFFFFFF
(1768394475.558073) can0 18FF1381#96002E20FFFFFFFF
(1768394475.558477) can0 18FF1180#FC0000FFFFFFFFFF
(1768394475.558598) can0 18FF1280#F201F201FFFFFFFF
(1768394475.559581) can0 18FF102C#FC0000FCFFFFFFFF
(1768394475.560496) can0 18FF2021#00000000FCFFFFFF
(1768394475.560744) can0 18FF2121#00E40000FFFFFFFF
(1768394475.569385) can0 18FF1280#FF01F701FFFFFFFF
(1768394475.571234) can0 18FF2021#00000000FCFFFFFF
(1768394475.571341) can0 18FF2221#18000800FFFFFFFF
(1768394475.578676) can0 18FF1381#96002E20FFFFFFFF
(1768394475.579152) can0 18FF1180#FC0000FFFFFFFFFF
(1768394475.579423) can0 18FF1280#F601F501FFFFFFFF
(1768394475.579491) can0 18FF102C#FC0000FCFFFFFFFF
(1768394475.581182) can0 18FF2021#00000000FCFFFFFF
(1768394475.588617) can0 18FF1280#F601F201FFFFFFFF
(1768394475.590202) can0 18FF2021#00000000FCFFFFFF
(1768394475.590239) can0 18FF2221#0C00FEFFFFFFFFFF
(1768394475.598933) can0 18FF1180#FC0000FFFFFFFFFF
(1768394475.599098) can0 18FF102C#FC0000FCFFFFFFFF
(1768394475.599207) can0 18FF1280#F301F601FFFFFFFF
(1768394475.599273) can0 18FF1381#96002E20FFFFFFFF
(1768394475.600144) can0 18FF2021#00000000FCFFFFFF
(1768394475.608656) can0 18FF1280#FB01F801FFFFFFFF
(1768394475.610616) can0 18FF2021#00000000FCFFFFFF
(1768394475.611068) can0 18FF2121#00E40000FFFFFFFF
(1768394475.611153) can0 18FF2221#10000C00FFFFFFFF
(1768394475.618364) can0 18FF1180#FC0000FFFFFFFFFF
(1768394475.618674) can0 18FEF100#FFC019FFFFFFFFFF
(1768394475.619122) can0 18FF1280#F201EF01FFFFFFFF
(1768394475.619212) can0 18FF1381#96002E20FFFFFFFF
(1768394475.619447) can0 18FF102C#FC0000FCFFFFFFFF
(1768394475.619524) can0 18FF14E6#D31FC3FFFFFFFFFF
(1768394475.621003) can0 18FF2021#00000000FCFFFFFF
(1768394475.623101) can0 18FEBF0B#BF197D7D7D7DFFFF
(1768394475.628948) can0 18FF1280#F401F501FFFFFFFF
(1768394475.630769) can0 18FF2221#0200FFFFFFFFFFFF
(1768394475.630807) can0 18FF2021#00000000FCFFFFFF
(1768394475.638167) can0 18FF1381#96002E20FFFFFFFF
(1768394475.638352) can0 18FF102C#FC0000FCFFFFFFFF
(1768394475.638604) can0 18FF1280#FB01F101FFFFFFFF
(1768394475.638774) can0 18FF1180#FC0000FFFFFFFFFF
(1768394475.640670) can0 18FF2021#00000000FCFFFFFF
(1768394475.648626) can0 18FF1280#F701F301FFFFFFFF
(1768394475.651027) can0 18FF2221#0D00FAFFFFFFFFFF
(1768394475.651071) can0 18FF2021#00000000FCFFFFFF
(1768394475.658242) can0 18FF1280#F101EE01FFFFFFFF
(1768394475.658430) can0 18FF102C#FC0000FCFFFFFFFF
(1768394475.658478) can0 18FF1180#FC0000FFFFFFFFFF
(1768394475.659012) can0 18FF1381#96002E20FFFFFFFF
(1768394475.660293) can0 18FF2021#00000000FCFFFFFF
(1768394475.660701) can0 18FF2121#00E40000FFFFFFFF
(1768394475.668145) can0 18FF1280#F101F301FFFFFFFF
(1768394475.670382) can0 18FF2221#FAFFF4FFFFFFFFFF
(1768394475.671226) can0 18FF2021#00000000FCFFFFFF
(1768394475.678556) can0 18FF1381#96002E20FFFFFFFF
(1768394475.678910) can0 18FF102C#FC0000FCFFFFFFFF
(1768394475.679217) can0 18FF1180#FC0000FFFFFFFFFF
(1768394475.679397) can0 18FF1280#F301F101FFFFFFFF
(1768394475.680400) can0 18FF2021#00000000FCFFFFFF
(1768394475.688889) can0 18FF1280#F801F301FFFFFFFF
(1768394475.690109) can0 18FF2221#0600F7FFFFFFFFFF
(1768394475.690896) can0 18FF2021#00000000FCFFFFFF
(1768394475.698253) can0 18FF1280#F501F501FFFFFFFF
(1768394475.698457) can0 18FF102C#FC0000FCFFFFFFFF
(1768394475.698604) can0 18FF1381#96002E20FFFFFFFF
(1768394475.699108) can0 18FF1180#FC0000FFFFFFFFFF
(1768394475.700433) can0 18FF2021#00000000FCFFFFFF
(1768394475.708178) can0 18FF1280#EC01F501FFFFFFFF
(1768394475.710462) can0 18FF2221#F2FF0100FFFFFFFF
(1768394475.710642) can0 18FF2121#00E40000FFFFFFFF
(1768394475.711073) can0 18FF2021#00000000FCFFFFFF
(1768394475.718057) can0 18FF1381#96002E20FFFFFFFF
(1768394475.719010) can0 18FF14E6#D31FC3FFFFFFFFFF
(1768394475.719053) can0 18FF1280#F601F101FFFFFFFF
(1768394475.719173) can0 18FEF100#FFC019FFFFFFFFFF
(1768394475.719370) can0 18FF102C#FC0000FCFFFFFFFF
(1768394475.719559) can0 18FF1180#FC0000FFFFFFFFFF
(1768394475.720428) can0 18FF2021#00000000FCFFFFFF
(1768394475.722666) can0 18FEBF0B#BF197D7D7D7DFFFF
(1768394475.728212) can0 18FF1280#F601EF01FFFFFFFF
(1768394475.730230) can0 18FF2221#0300F0FFFFFFFFFF
(1768394475.731320) can0 18FF2021#00000000FCFFFFFF
(1768394475.738530) can0 18FF1381#96002E20FFFFFFFF
(1768394475.738539) can0 18FF102C#FC0000FCFFFFFFFF
(1768394475.739157) can0 18FF1280#F601FA01FFFFFFFF
(1768394475.739466) can0 18FF1180#FC0000FFFFFFFFFF
(1768394475.740724) can0 18FF2021#00000000FCFFFFFF
(1768394475.748461) can0 18FF1280#EE01F101FFFFFFFF
(1768394475.750677) can0 18FF2221#F7FFFCFFFFFFFFFF
(1768394475.750930) can0 18FF2021#00000000FCFFFFFF
(1768394475.758317) can0 18FF1280#F001F901FFFFFFFF
(1768394475.758538) can0 18FF1180#FC0000FFFFFFFFFF
(1768394475.759070) can0 18FF102C#FC0000FCFFFFFFFF
(1768394475.759380) can0 18FF1381#96002E20FFFFFFFF
(1768394475.760250) can0 18FF2121#00E40000FFFFFFFF
(1768394475.761152) can0 18FF2021#00000000FCFFFFFF
(1768394475.768131) can0 18FF1280#F401F301FFFFFFFF
(1768394475.770483) can0 18FF2221#FAFF0300FFFFFFFF
(1768394475.770824) can0 18FF2021#00000000FCFFFFFF
(1768394475.778315) can0 18FF1280#F101F201FFFFFFFF
(1768394475.778641) can0 18FF1381#96002E20FFFFFFFF
(1768394475.778681) can0 18FF102C#FC0000FCFFFFFFFF
(1768394475.779548) can0 18FF1180#FC0000FFFFFFFFFF
(1768394475.780754) can0 18FF2021#00000000FCFFFFFF
(1768394475.789415) can0 18FF1280#F701F401FFFFFFFF
(1768394475.790160) can0 18FF2221#0100FEFFFFFFFFFF
(1768394475.790311) can0 18FF2021#00000000FCFFFFFF
(1768394475.798208) can0 18FF1381#96002E20FFFFFFFF
(1768394475.798997) can0 18FF102C#FC0000FCFFFFFFFF
(1768394475.799184) can0 18FF1280#F201F101FFFFFFFF
(1768394475.799290) can0 18FF1180#FC0000FFFFFFFFFF
(1768394475.801121) can0 18FF2021#00000000FCFFFFFF
(1768394475.809067) can0 18FF1280#F701F501FFFFFFFF
(1768394475.810603) can0 18FF2121#00E40000FFFFFFFF
(1768394475.810838) can0 18FF2021#00000000FCFFFFFF
(1768394475.811124) can0 18FF2221#0400FEFFFFFFFFFF
(1768394475.818083) can0 18FF1280#F201F001FFFFFFFF
(1768394475.818513) can0 18FF102C#FC0000FCFFFFFFFF
(1768394475.818579) can0 18FF1180#FC0000FFFFFFFFFF
(1768394475.818679) can0 18FF1381#96002E20FFFFFFFF
(1768394475.819066) can0 18FEF100#FFC019FFFFFFFFFF
(1768394475.819571) can0 18FF14E6#D31FC3FFFFFFFFFF
(1768394475.820687) can0 18FF2021#00000000FCFFFFFF
(1768394475.821555) can0 18FEBF0B#BF197D7D7D7DFFFF
(1768394475.828892) can0 18FF1280#F601EE01FFFFFFFF
(1768394475.830287) can0 18FF2221#0300ECFFFFFFFFFF
(1768394475.830705) can0 18FF2021#00000000FCFFFFFF
(1768394475.838321) can0 18FF1180#FC0000FFFFFFFFFF
(1768394475.838859) can0 18FF1280#F901F401FFFFFFFF
(1768394475.839034) can0 18FF1381#96002E20FFFFFFFF
(1768394475.839169) can0 18FF102C#FC0000FCFFFFFFFF
(1768394475.840732) can0 18FF2021#00000000FCFFFFFF
(1768394475.849084) can0 18FF1280#F501EE01FFFFFFFF
(1768394475.850622) can0 18FF2221#0800ECFFFFFFFFFF
(1768394475.850720) can0 18FF2021#00000000FCFFFFFF
(1768394475.858884) can0 18FF1280#F501F401FFFFFFFF
(1768394475.858886) can0 18FF102C#FC0000FCFFFFFFFF
(1768394475.859144) can0 18FF1381#96002E20FFFFFFFF
(1768394475.859531) can0 18FF1180#FC0000FFFFFFFFFF
(1768394475.860262) can0 18FF2121#00E40000FFFFFFFF
(1768394475.860934) can0 18FF2021#00000000FCFFFFFF
(1768394475.869190) can0 18FF1280#F301F601FFFFFFFF
(1768394475.870355) can0 18FF2021#00000000FCFFFFFF
(1768394475.870431) can0 18FF2221#01000000FFFFFFFF
(1768394475.878057) can0 18FF1381#96002E20FFFFFFFF
(1768394475.878849) can0 18FF102C#FC0000FCFFFFFFFF
(1768394475.879106) can0 18FF1280#F501F501FFFFFFFF
(1768394475.879302) can0 18FF1180#FC0000FFFFFFFFFF
(1768394475.880430) can0 18FF2021#00000000FCFFFFFF
(1768394475.888091) can0 18FF1280#F301F401FFFFFFFF
(1768394475.891013) can0 18FF2021#00000000FCFFFFFF
(1768394475.891135) can0 18FF2221#FFFF0100FFFFFFFF
(1768394475.898176) can0 18FF102C#FC0000FCFFFFFFFF
(1768394475.898251) can0 18FF1180#FC0000FFFFFFFFFF
(1768394475.898797) can0 18FF1280#F401EF01FFFFFFFF
(1768394475.899294) can0 18FF1381#96002E20FFFFFFFF
(1768394475.900777) can0 18FF2021#00000000FCFFFFFF
(1768394475.908657) can0 18FF1280#F901F301FFFFFFFF
(1768394475.910325) can0 18FF2221#0A00F8FFFFFFFFFF
(1768394475.910920) can0 18FF2021#00000000FCFFFFFF
(1768394475.910983) can0 18FF2121#00E40000FFFFFFFF
(1768394475.918057) can0 18FF102C#FC0000FCFFFFFFFF
(1768394475.918154) can0 18FF1381#96002E20FFFFFFFF
(1768394475.918221) can0 18FF14E6#D31FC3FFFFFFFFFF
(1768394475.918773) can0 18FF1280#F801F001FFFFFFFF
(1768394475.919015) can0 18FF1180#FC0000FFFFFFFFFF
(1768394475.919343) can0 18FEF100#FFC019FFFFFFFFFF
(1768394475.920274) can0 18FF2021#00000000FCFFFFFF
(1768394475.923656) can0 18FEBF0B#BF197D7D7D7DFFFF
(1768394475.928962) can0 18FF1280#F101FA01FFFFFFFF
(1768394475.930999) can0 18FF2221#00000800FFFFFFFF
(1768394475.931287) can0 18FF2021#00000000FCFFFFFF
(1768394475.938108) can0 18FF102C#FC0000FCFFFFFFFF
(1768394475.938301) can0 18FF1280#F601EF01FFFFFFFF
(1768394475.938495) can0 18FF1180#FC0000FFFFFFFFFF
(1768394475.939576) can0 18FF1381#96002E20FFFFFFFF
(1768394475.940219) can0 18FF2021#00000000FCFFFFFF
(1768394475.948138) can0 18FF1280#F301F301FFFFFFFF
(1768394475.950379) can0 18FF2221#0000F9FFFFFFFFFF
(1768394475.950823) can0 18FF2021#00000000FCFFFFFF
(1768394475.958721) can0 18FF1180#FC0000FFFFFFFFFF
(1768394475.958789) can0 18FF1280#FB01F301FFFFFFFF
(1768394475.958814) can0 18FF102C#FC0000FCFFFFFFFF
(1768394475.959225) can0 18FF1381#96002E20FFFFFFFF
(1768394475.960749) can0 18FF2021#00000000FCFFFFFF
(1768394475.961029) can0 18FF2121#00E40000FFFFFFFF
(1768394475.969143) can0 18FF1280#F101F301FFFFFFFF
(1768394475.970641) can0 18FF2021#00000000FCFFFFFF
(1768394475.971157) can0 18FF2221#0100FBFFFFFFFFFF
(1768394475.978227) can0 18FF1280#F401EE01FFFFFFFF
(1768394475.979069) can0 18FF102C#FC0000FCFFFFFFFF
(1768394475.979147) can0 18FF1180#FC0000FFFFFFFFFF
(1768394475.979155) can0 18FF1381#96002E20FFFFFFFF
(1768394475.981106) can0 18FF2021#00000000FCFFFFFF
(1768394475.989448) can0 18FF1280#F501F201FFFFFFFF
(1768394475.990437) can0 18FF2021#00000000FCFFFFFF
(1768394475.991201) can0 18FF2221#0200F2FFFFFFFFFF
(1768394475.998330) can0 18FF102C#FC0000FCFFFFFFFF
(1768394475.998486) can0 18FF1280#F401F401FFFFFFFF
(1768394475.999153) can0 18FF1180#FC0000FFFFFFFFFF
(1768394475.999548) can0 18FF1381#96002E20FFFFFFFF
(1768394476.000482) can0 18FF2021#00000000FCFFFFFF
(1768394476.009280) can0 18FF1280#F801EF01FFFFFFFF
(1768394476.010518) can0 18FF2021#00000000FCFFFFFF
(1768394476.010900) can0 18FF2121#00E40000FFFFFFFF
(1768394476.011199) can0 18FF2221#0900F0FFFFFFFFFF
(1768394476.018084) can0 18FF1180#FC0000FFFFFFFFFF
(1768394476.018144) can0 18FF1381#96002E20FFFFFFFF
(1768394476.018504) can0 18FF102C#FC0000FCFFFFFFFF
(1768394476.018754) can0 18FF14E6#D31FC3FFFFFFFFFF
(1768394476.018969) can0 18FEF100#FFC019FFFFFFFFFF
(1768394476.019289) can0 18FF1280#F801F101FFFFFFFF
(1768394476.020813) can0 18FF2021#00000000FCFFFFFF
(1768394476.021096) can0 18FEBF0B#BF197D7D7D7DFFFF
(1768394476.028414) can0 18FF1280#F701F501FFFFFFFF
(1768394476.030198) can0 18FF2221#0C00FBFFFFFFFFFF
(1768394476.031015) can0 18FF2021#00000000FCFFFFFF
(1768394476.038103) can0 18FF1381#96002E20FFFFFFFF
(1768394476.038528) can0 18FF1180#FC0000FFFFFFFFFF
(1768394476.039269) can0 18FF1280#F801F301FFFFFFFF
(1768394476.039527) can0 18FF102C#FC0000FCFFFFFFFF
(1768394476.041396) can0 18FF2021#00000000FCFFFFFF
(1768394476.048337) can0 18FF1280#F901F401FFFFFFFF
(1768394476.050396) can0 18FF2021#00000000FCFFFFFF
(1768394476.050638) can0 18FF2221#1100FDFFFFFFFFFF
(1768394476.058136) can0 18FF1381#96002E20FFFFFFFF
(1768394476.058349) can0 18FF102C#FC0000FCFFFFFFFF
(1768394476.058471) can0 18FF1180#FC0000FFFFFFFFFF
(1768394476.059432) can0 18FF1280#F201F501FFFFFFFF
(1768394476.060753) can0 18FF2121#00E40000FFFFFFFF
(1768394476.060876) can0 18FF2021#00000000FCFFFFFF
(1768394476.069150) can0 18FF1280#F501F201FFFFFFFF
(1768394476.070447) can0 18FF2021#00000000FCFFFFFF
(1768394476.071116) can0 18FF2221#0400FCFFFFFFFFFF
(1768394476.078226) can0 18FF102C#FC0000FCFFFFFFFF
(1768394476.078336) can0 18FF1180#FC0000FFFFFFFFFF
(1768394476.079144) can0 18FF1280#EE01F401FFFFFFFF
(1768394476.079286) can0 18FF1381#96002E20FFFFFFFF
(1768394476.081168) can0 18FF2021#00000000FCFFFFFF
(1768394476.088344) can0 18FF1280#FD01F201FFFFFFFF
(1768394476.090119) can0 18FF2221#0D00FAFFFFFFFFFF
(1768394476.090922) can0 18FF2021#00000000FCFFFFFF
(1768394476.099123) can0 18FF1280#F601F301FFFFFFFF
(1768394476.099340) can0 18FF102C#FC0000FCFFFFFFFF
(1768394476.099391) can0 18FF1381#96002E20FFFFFFFF
(1768394476.099474) can0 18FF1180#FC0000FFFFFFFFFF
(1768394476.100117) can0 18FF2021#00000000FCFFFFFF
(1768394476.108319) can0 18FF1280#F801F301FFFFFFFF
(1768394476.110289) can0 18FF2021#00000000FCFFFFFF
(1768394476.110958) can0 18FF2121#00E40000FFFFFFFF
(1768394476.111125) can0 18FF2221#0D00FBFFFFFFFFFF
(1768394476.118169) can0 18FF1280#EF01EE01FFFFFFFF
(1768394476.118324) can0 18FF1381#96002E20FFFFFFFF
(1768394476.118363) can0 18FF14E6#D31FC3FFFFFFFFFF
(1768394476.118711) can0 18FF102C#FC0000FCFFFFFFFF
(1768394476.118837) can0 18FEF100#FFC019FFFFFFFFFF
(1768394476.119305) can0 18FF1180#FC0000FFFFFFFFFF
(1768394476.120273) can0 18FF2021#00000000FCFFFFFF
(1768394476.122779) can0 18FEBF0B#BF197D7D7D7DFFFF
(1768394476.128796) can0 18FF1280#F201F601FFFFFFFF
(1768394476.130249) can0 18FF2021#00000000FCFFFFFF
(1768394476.131104) can0 18FF2221#FAFFFCFFFFFFFFFF
(1768394476.138170) can0 18FF1180#FC0000FFFFFFFFFF
(1768394476.138201) can0 18FF1381#96002E20FFFFFFFF
(1768394476.138406) can0 18FF1280#F801F101FFFFFFFF
(1768394476.138804) can0 18FF102C#FC0000FCFFFFFFFF
(1768394476.140985) can0 18FF2021#00000000FCFFFFFF
(1768394476.149134) can0 18FF1280#F101F301FFFFFFFF
(1768394476.150537) can0 18FF2021#00000000FCFFFFFF
(1768394476.150566) can0 18FF2221#FDFFF9FFFFFFFFFF
(1768394476.158147) can0 18FF1381#96002E20FFFFFFFF
(1768394476.158524) can0 18FF1180#FC0000FFFFFFFFFF
(1768394476.158619) can0 18FF1280#F301FF01FFFFFFFF
(1768394476.159142) can0 18FF102C#FC0000FCFFFFFFFF
(1768394476.160964) can0 18FF2121#00E40000FFFFFFFF
(1768394476.161390) can0 18FF2021#00000000FCFFFFFF
(1768394476.169294) can0 18FF1280#ED01F601FFFFFFFF
(1768394476.170636) can0 18FF2221#F0FF1100FFFFFFFF
(1768394476.171143) can0 18FF2021#00000000FCFFFFFF
(1768394476.178528) can0 18FF102C#FC0000FCFFFFFFFF
(1768394476.178858) can0 18FF1280#FB01FF01FFFFFFFF
(1768394476.178956) can0 18FF1381#96002E20FFFFFFFF
(1768394476.179558) can0 18FF1180#FC0000FFFFFFFFFF
(1768394476.180761) can0 18FF2021#00000000FCFFFFFF
(1768394476.189336) can0 18FF1280#F401F501FFFFFFFF
(1768394476.190174) can0 18FF2021#00000000FCFFFFFF
(1768394476.190623) can0 18FF2221#03001400FFFFFFFF
(1768394476.198121) can0 18FF102C#FC0000FCFFFFFFFF
(1768394476.198167) can0 18FF1381#96002E20FFFFFFFF
(1768394476.198244) can0 18FF1180#FC0000FFFFFFFFFF
(1768394476.199311) can0 18FF1280#F801F201FFFFFFFF
(1768394476.201259) can0 18FF2021#00000000FCFFFFFF
(1768394476.208726) can0 18FF1280#FD01F301FFFFFFFF
(1768394476.210786) can0 18FF2221#17000000FFFFFFFF
(1768394476.211101) can0 18FF2121#00E40000FFFFFFFF
(1768394476.211396) can0 18FF2021#00000000FCFFFFFF
(1768394476.218050) can0 18FF1381#96002E20FFFFFFFF
(1768394476.218860) can0 18FF102C#FC0000FCFFFFFFFF
(1768394476.218890) can0 18FF14E6#D31FC3FFFFFFFFFF
(1768394476.218929) can0 18FEF100#FFC019FFFFFFFFFF
(1768394476.219348) can0 18FF1280#F801FB01FFFFFFFF
(1768394476.219438) can0 18FF1180#FC0000FFFFFFFFFF
(1768394476.221225) can0 18FF2021#00000000FCFFFFFF
(1768394476.223537) can0 18FEBF0B#BF197D7D7D7DFFFF
(1768394476.228148) can0 18FF1280#F301F501FFFFFFFF
(1768394476.230830) can0 18FF2021#00000000FCFFFFFF
(1768394476.231328) can0 18FF2221#08000B00FFFFFFFF
(1768394476.238654) can0 18FF102C#FC0000FCFFFFFFFF
(1768394476.239145) can0 18FF1280#F601F901FFFFFFFF
(1768394476.239482) can0 18FF1381#96002E20FFFFFFFF
(1768394476.239586) can0 18FF1180#FC0000FFFFFFFFFF
(1768394476.240286) can0 18FF2021#00000000FCFFFFFF
(1768394476.249223) can0 18FF1280#F901F001FFFFFFFF
(1768394476.250578) can0 18FF2221#0E00FFFFFFFFFFFF
(1768394476.250740) can0 18FF2021#00000000FCFFFFFF
(1768394476.258414) can0 18FF102C#FC0000FCFFFFFFFF
(1768394476.258544) can0 18FF1180#FC0000FFFFFFFFFF
(1768394476.258708) can0 18FF1381#96002E20FFFFFFFF
(1768394476.259346) can0 18FF1280#F401F401FFFFFFFF
(1768394476.261216) can0 18FF2021#00000000FCFFFFFF
(1768394476.261272) can0 18FF2121#00E40000FFFFFFFF
(1768394476.269232) can0 18FF1280#FA01F201FFFFFFFF
(1768394476.270479) can0 18FF2021#00000000FCFFFFFF
(1768394476.271329) can0 18FF2221#0F00FBFFFFFFFFFF
(1768394476.278423) can0 18FF1381#96002E20FFFFFFFF
(1768394476.278793) can0 18FF1280#F201F601FFFFFFFF
(1768394476.278883) can0 18FF102C#FC0000FCFFFFFFFF
(1768394476.279381) can0 18FF1180#FC0000FFFFFFFFFF
(1768394476.280681) can0 18FF2021#00000000FCFFFFFF
(1768394476.289014) can0 18FF1280#F401F201FFFFFFFF
(1768394476.290293) can0 18FF2221#0200FCFFFFFFFFFF
(1768394476.290565) can0 18FF2021#00000000FCFFFFFF
(1768394476.298560) can0 18FF102C#FC0000FCFFFFFFFF
(1768394476.299468) can0 18FF1381#96002E20FFFFFFFF
(1768394476.299569) can0 18FF1180#FC0000FFFFFFFFFF
(1768394476.299580) can0 18FF1280#EC01F701FFFFFFFF
(1768394476.300590) can0 18FF2021#00000000FCFFFFFF
(1768394476.309333) can0 18FF1280#F501F701FFFFFFFF
(1768394476.310439) can0 18FECA21#00FF00000000FFFF
(1768394476.310519) can0 18FF2021#00000000FCFFFFFF
(1768394476.310994) can0 18FF2121#00E40000FFFFFFFF
(1768394476.311074) can0 18FF2221#FAFF0A00FFFFFFFF
(1768394476.318081) can0 18FF1180#FC0000FFFFFFFFFF
(1768394476.318102) can0 18FF1280#EE01F501FFFFFFFF
(1768394476.318734) can0 18FF1381#96002E20FFFFFFFF
(1768394476.319335) can0 18FEF100#FFC019FFFFFFFFFF
(1768394476.319452) can0 18FF102C#FC0000FCFFFFFFFF
(1768394476.319532) can0 18FEF500#FFFFFF8E1FFFFFFF
(1768394476.319545) can0 18FF14E6#D31FC3FFFFFFFFFF
(1768394476.321120) can0 18FF2021#00000000FCFFFFFF
(1768394476.322170) can0 18FEBF0B#BF197D7D7D7DFFFF
(1768394476.323271) can0 18FEE617#30290C0138267D7E
(1768394476.324471) can0 18FCB7F3#C3FF2C01FFFFFFFF
(1768394476.328685) can0 18FF1280#EF01F101FFFFFFFF
(1768394476.331031) can0 18FF2021#00000000FCFFFFFF
(1768394476.331244) can0 18FF2221#EFFFFCFFFFFFFFFF
(1768394476.338177) can0 18FF1381#96002E20FFFFFFFF
(1768394476.338458) can0 18FF1280#F101F801FFFFFFFF
(1768394476.338841) can0 18FF102C#FC0000FCFFFFFFFF
(1768394476.339552) can0 18FF1180#FC0000FFFFFFFFFF
(1768394476.340459) can0 18FF2021#00000000FCFFFFFF
(1768394476.348058) can0 18FF1280#F301F501FFFFFFFF
(1768394476.350805) can0 18FF2221#F7FF0700FFFFFFFF
(1768394476.350989) can0 18FF2021#00000000FCFFFFFF
(1768394476.358632) can0 18FF1180#FC0000FFFFFFFFFF
(1768394476.358932) can0 18FF1280#E801F601FFFFFFFF
(1768394476.359108) can0 18FF102C#FC0000FCFFFFFFFF
(1768394476.359420) can0 18FF1381#96002E20FFFFFFFF
(1768394476.360887) can0 18FF2121#00E40000FFFFFFFF
(1768394476.361109) can0 18FF2021#00000000FCFFFFFF
(1768394476.369166) can0 18FF1280#F401F101FFFFFFFF
(1768394476.370477) can0 18FF2221#F2FFFDFFFFFFFFFF
(1768394476.371310) can0 18FF2021#00000000FCFFFFFF
(1768394476.378058) can0 18FF102C#FC0000FCFFFFFFFF
(1768394476.378402) can0 18FF1280#F201F801FFFFFFFF
(1768394476.378801) can0 18FF1180#FC0000FFFFFFFFFF
(1768394476.378952) can0 18FF1381#96002E20FFFFFFFF
(1768394476.381381) can0 18FF2021#00000000FCFFFFFF
(1768394476.389150) can0 18FF1280#ED01F401FFFFFFFF
(1768394476.390344) can0 18FF2221#ECFF0400FFFFFFFF
(1768394476.390878) can0 18FF2021#00000000FCFFFFFF
(1768394476.398275) can0 18FF1280#F401F701FFFFFFFF
(1768394476.398377) can0 18FF1180#FC0000FFFFFFFFFF
(1768394476.398937) can0 18FF102C#FC0000FCFFFFFFFF
(1768394476.399581) can0 18FF1381#96002E20FFFFFFFF
(1768394476.401263) can0 18FF2021#00000000FCFFFFFF
(1768394476.409362) can0 18FF1280#F401F401FFFFFFFF
(1768394476.410609) can0 18FF2021#00000000FCFFFFFF
(1768394476.410613) can0 18FF2121#00E40000FFFFFFFF
(1768394476.411275) can0 18FF2221#FBFF0500FFFFFFFF
(1768394476.418327) can0 18FF1381#96002E20FFFFFFFF
(1768394476.418356) can0 18FF1280#F501F801FFFFFFFF
(1768394476.418595) can0 18FEF100#FFC019FFFFFFFFFF
(1768394476.418779) can0 18FF14E6#D31FC3FFFFFFFFFF
(1768394476.418815) can0 18FF1180#FC0000FFFFFFFFFF
(1768394476.419227) can0 18FF102C#FC0000FCFFFFFFFF
(1768394476.421061) can0 18FF2021#00000000FCFFFFFF
(1768394476.421822) can0 18FEBF0B#BF197D7D7D7DFFFF
(1768394476.428756) can0 18FF1280#F701F701FFFFFFFF
(1768394476.430684) can0 18FF2021#00000000FCFFFFFF
(1768394476.431207) can0 18FF2221#06000E00FFFFFFFF
(1768394476.438777) can0 18FF102C#FC0000FCFFFFFFFF
(1768394476.439044) can0 18FF1280#F401F301FFFFFFFF
(1768394476.439371) can0 18FF1381#96002E20FFFFFFFF
(1768394476.439570) can0 18FF1180#FC0000FFFFFFFFFF
(1768394476.440332) can0 18FF2021#00000000FCFFFFFF
(1768394476.448052) can0 18FF1280#F501F301FFFFFFFF
(1768394476.450627) can0 18FF2221#03000000FFFFFFFF
(1768394476.450753) can0 18FF2021#00000000FCFFFFFF
(1768394476.458847) can0 18FF1280#F201F401FFFFFFFF
(1768394476.458955) can0 18FF1180#FC0000FFFFFFFFFF
(1768394476.459181) can0 18FF1381#96002E20FFFFFFFF
(1768394476.459313) can0 18FF102C#FC0000FCFFFFFFFF
(1768394476.460763) can0 18FF2021#00000000FCFFFFFF
(1768394476.461029) can0 18FF2121#00E40000FFFFFFFF
(1768394476.468316) can0 18FF1280#F701EF01FFFFFFFF
(1768394476.470413) can0 18FF2221#0500F3FFFFFFFFFF
(1768394476.470922) can0 18FF2021#00000000FCFFFFFF
(1768394476.478347) can0 18FF1180#FC0000FFFFFFFFFF
(1768394476.478802) can0 18FF1280#FB01F201FFFFFFFF
(1768394476.478872) can0 18FF1381#96002E20FFFFFFFF
(1768394476.478904) can0 18FF102C#FC0000FCFFFFFFFF
(1768394476.481308) can0 18FF2021#00000000FCFFFFFF
(1768394476.489335) can0 18FF1280#ED01F301FFFFFFFF
(1768394476.490520) can0 18FF2221#FAFFF8FFFFFFFFFF
(1768394476.491334) can0 18FF2021#00000000FCFFFFFF
(1768394476.498060) can0 18FF1381#96002E20FFFFFFFF
(1768394476.498343) can0 18FF102C#FC0000FCFFFFFFFF
(1768394476.498487) can0 18FF1180#FC0000FFFFFFFFFF
(1768394476.498692) can0 18FF1280#F301EA01FFFFFFFF
(1768394476.500920) can0 18FF2021#00000000FCFFFFFF
(1768394476.509471) can0 18FF1280#F501FB01FFFFFFFF
(1768394476.510324) can0 18FF2121#00E40000FFFFFFFF
(1768394476.510501) can0 18FF2221#00000300FFFFFFFF
(1768394476.511126) can0 18FF2021#00000000FCFFFFFF
(1768394476.518148) can0 18FF1280#F801F401FFFFFFFF
(1768394476.518522) can0 18FF14E6#D31FC3FFFFFFFFFF
(1768394476.518797) can0 18FF102C#FC0000FCFFFFFFFF
(1768394476.518910) can0 18FF1381#96002E20FFFFFFFF
(1768394476.519022) can0 18FEF100#FFC019FFFFFFFFFF
(1768394476.519254) can0 18FF1180#FC0000FFFFFFFFFF
(1768394476.521113) can0 18FF2021#00000000FCFFFFFF
(1768394476.522312) can0 18FEBF0B#BF197D7D7D7DFFFF
(1768394476.528186) can0 18FF1280#F501F401FFFFFFFF
(1768394476.530534) can0 18FF2221#06000100FFFFFFFF
(1768394476.531302) can0 18FF2021#00000000FCFFFFFF
(1768394476.538309) can0 18FF1381#96002E20FFFFFFFF
(1768394476.538669) can0 18FF1180#FC0000FFFFFFFFFF
(1768394476.539076) can0 18FF1280#F401F801FFFFFFFF
(1768394476.539276) can0 18FF102C#FC0000FCFFFFFFFF
(1768394476.540393) can0 18FF2021#00000000FCFFFFFF
(1768394476.549569) can0 18FF1280#FB01F701FFFFFFFF
(1768394476.550179) can0 18FF2221#0F000D00FFFFFFFF
(1768394476.550797) can0 18FF2021#00000000FCFFFFFF
(1768394476.558107) can0 18FF1180#FC0000FFFFFFFFFF
(1768394476.558343) can0 18FF1381#96002E20FFFFFFFF
(1768394476.559445) can0 18FF102C#FC0000FCFFFFFFFF
(1768394476.559502) can0 18FF1280#F401F401FFFFFFFF
(1768394476.560142) can0 18FF2121#00E40000FFFFFFFF
(1768394476.561200) can0 18FF2021#00000000FCFFFFFF
(1768394476.569454) can0 18FF1280#F401F601FFFFFFFF
(1768394476.571100) can0 18FF2021#00000000FCFFFFFF
(1768394476.571394) can0 18FF2221#04000800FFFFFFFF
(1768394476.578151) can0 18FF1180#FC0000FFFFFFFFFF
(1768394476.578281) can0 18FF1381#96002E20FFFFFFFF
(1768394476.578875) can0 18FF102C#FC0000FCFFFFFFFF
(1768394476.578917) can0 18FF1280#F701FD01FFFFFFFF
(1768394476.580516) can0 18FF2021#00000000FCFFFFFF
(1768394476.588745) can0 18FF1280#EF01FC01FFFFFFFF
(1768394476.590986) can0 18FF2221#FAFF2100FFFFFFFF
(1768394476.591148) can0 18FF2021#00000000FCFFFFFF
(1768394476.598156) can0 18FF1180#FC0000FFFFFFFFFF
(1768394476.598298) can0 18FF1280#F401FA01FFFFFFFF
(1768394476.598436) can0 18FF102C#FC0000FCFFFFFFFF
(1768394476.599243) can0 18FF1381#96002E20FFFFFFFF
(1768394476.600661) can0 18FF2021#00000000FCFFFFFF
(1768394476.608759) can0 18FF1280#F001F601FFFFFFFF
(1768394476.610493) can0 18FF2021#00000000FCFFFFFF
(1768394476.610729) can0 18FF2121#00E40000FFFFFFFF
(1768394476.611202) can0 18FF2221#F6FF1500FFFFFFFF
(1768394476.618268) can0 18FEF100#FFC019FFFFFFFFFF
(1768394476.618284) can0 18FF102C#FC0000FCFFFFFFFF
(1768394476.618442) can0 18FF1280#E901F801FFFFFFFF
(1768394476.618553) can0 18FF1180#FC0000FFFFFFFFFF
(1768394476.618625) can0 18FF14E6#D31FC3FFFFFFFFFF
(1768394476.618839) can0 18FF1381#96002E20FFFFFFFF
